Sample in Buffer,Sample in Window,TRIGGER,slaves/slave_vfat3/fifo_out_w_en,slaves/slave_vfat3/fifo_in_w_en,slaves/slave_vfat3/fifo_out_r_en,slaves/slave_vfat3/fifo_in_r_en,slaves/slave_vfat3/fifo_out_valid,slaves/slave_vfat3/fifo_in_valid,slaves/slave_vfat3/fifo_out_data_in[31:0],slaves/slave_vfat3/fifo_out_data_out[31:0],slaves/slave_vfat3/fifo_in_data_in[31:0],slaves/slave_vfat3/fifo_in_data_out[31:0],slaves/slave_vfat3/fifo_out_empty,slaves/slave_vfat3/fifo_in_empty,slaves/slave_vfat3/fifo_out_full,slaves/slave_vfat3/fifo_in_full,slaves/slave_vfat3/ser_d_in[7:0],slaves/slave_vfat3/reset,slaves/slave_vfat3/rst40,slaves/slave_vfat3/reset_fifo,slaves/slave_vfat3/data_bus_in[7:0],slaves/slave_vfat3/d_sync[7:0]
0,0,1,0,0,0,1,0,0,fab52f7e,00000000,00000000,00000000,0,0,1,0,ff,0,0,0,7e,81
1,1,0,0,0,0,0,0,1,fab53081,00000000,00000000,00000010,0,0,1,0,00,0,0,0,81,7e
2,2,0,0,0,0,0,0,0,fab5317e,00000000,00000000,00000010,0,0,1,0,ff,0,0,0,7e,81
3,3,0,0,0,0,0,0,0,fab53281,00000000,00000000,00000010,0,0,1,0,00,0,0,0,81,7e
4,4,0,0,0,0,0,0,0,fab5337e,00000000,00000000,00000010,0,0,1,0,ff,0,0,0,7e,81
5,5,0,0,0,0,0,0,0,fab53481,00000000,00000000,00000010,0,0,1,0,00,0,0,0,81,7e
6,6,0,0,0,0,0,0,0,fab5357e,00000000,00000000,00000010,0,0,1,0,ff,0,0,0,7e,81
7,7,0,0,0,0,0,0,0,fab53681,00000000,00000000,00000010,0,0,1,0,00,0,0,0,81,7e
8,8,0,0,0,0,0,0,0,fab5377e,00000000,00000000,00000010,0,0,1,0,ff,0,0,0,7e,81
9,9,0,0,0,0,0,0,0,fab53881,00000000,00000000,00000010,0,0,1,0,00,0,0,0,81,7e
10,10,0,0,0,0,0,0,0,fab5397e,00000000,00000000,00000010,0,0,1,0,ff,0,0,0,7e,81
11,11,0,0,0,0,0,0,0,fab53a81,00000000,00000000,00000010,0,0,1,0,00,0,0,0,81,7e
12,12,0,0,0,0,0,0,0,fab53b7e,00000000,00000000,00000010,0,0,1,0,ff,0,0,0,7e,81
13,13,0,0,0,0,0,0,0,fab53c81,00000000,00000000,00000010,0,0,1,0,00,0,0,0,81,7e
14,14,0,0,0,0,0,0,0,fab53d7e,00000000,00000000,00000010,0,0,1,0,ff,0,0,0,7e,81
15,15,0,0,0,0,0,0,0,fab53e81,00000000,00000000,00000010,0,0,1,0,00,0,0,0,81,7e
16,16,0,0,0,0,0,0,0,fab53f7e,00000000,00000000,00000010,0,0,1,0,ff,0,0,0,7e,81
17,17,0,0,0,0,1,0,0,fab54081,00000000,00000000,00000010,0,0,1,0,00,0,0,0,81,7e
18,18,0,0,0,0,0,0,1,fab5417e,00000000,00000000,00000010,0,0,1,0,ff,0,0,0,7e,81
19,19,0,0,0,0,0,0,0,fab54281,00000000,00000000,00000010,0,0,1,0,17,0,0,0,81,7e
20,20,0,0,0,0,0,0,0,fab5437e,00000000,00000000,00000010,0,0,1,0,00,0,0,0,7e,81
21,21,0,0,0,0,0,0,0,fab54481,00000000,00000000,00000010,0,0,1,0,ff,0,0,0,81,7e
22,22,0,0,0,0,0,0,0,fab5457e,00000000,00000000,00000010,0,0,1,0,00,0,0,0,7e,81
23,23,0,0,0,0,0,0,0,fab54681,00000000,00000000,00000010,0,0,1,0,ff,0,0,0,81,7e
24,24,0,0,0,0,0,0,0,fab5477e,00000000,00000000,00000010,0,0,1,0,00,0,0,0,7e,81
25,25,0,0,0,0,0,0,0,fab54881,00000000,00000000,00000010,0,0,1,0,ff,0,0,0,81,7e
26,26,0,0,0,0,0,0,0,fab5497e,00000000,00000000,00000010,0,0,1,0,00,0,0,0,7e,81
27,27,0,0,0,0,0,0,0,fab54a81,00000000,00000000,00000010,0,0,1,0,ff,0,0,0,81,7e
28,28,0,0,0,0,0,0,0,fab54b7e,00000000,00000000,00000010,0,0,1,0,00,0,0,0,7e,81
29,29,0,0,0,0,0,0,0,fab54c81,00000000,00000000,00000010,0,0,1,0,ff,0,0,0,81,7e
30,30,0,0,0,0,0,0,0,fab54d7e,00000000,00000000,00000010,0,0,1,0,00,0,0,0,7e,81
31,31,0,0,0,0,0,0,0,fab54e81,00000000,00000000,00000010,0,0,1,0,ff,0,0,0,81,7e
32,32,0,0,0,0,0,0,0,fab54f7e,00000000,00000000,00000010,0,0,1,0,00,0,0,0,7e,81
33,33,0,0,0,0,0,0,0,fab55081,00000000,00000000,00000010,0,0,1,0,ff,0,0,0,81,7e
34,34,0,0,0,0,1,0,0,fab5517e,00000000,00000000,00000010,0,0,1,0,00,0,0,0,7e,81
35,35,0,0,0,0,0,0,1,fab55281,00000000,00000000,00000010,0,1,1,0,ff,0,0,0,81,7e
36,36,0,0,0,0,0,0,0,fab5537e,00000000,00000000,00000010,0,1,1,0,17,0,0,0,7e,81
37,37,0,0,0,0,0,0,0,fab55481,00000000,00000000,00000010,0,1,1,0,00,0,0,0,81,7e
38,38,0,0,0,0,0,0,0,fab5557e,00000000,00000000,00000010,0,1,1,0,ff,0,0,0,7e,81
39,39,0,0,0,0,0,0,0,fab55681,00000000,00000000,00000010,0,1,1,0,00,0,0,0,81,7e
40,40,0,0,0,0,0,0,0,fab5577e,00000000,00000000,00000010,0,1,1,0,ff,0,0,0,7e,81
41,41,0,0,0,0,0,0,0,fab55881,00000000,00000000,00000010,0,1,1,0,00,0,0,0,81,7e
42,42,0,0,0,0,0,0,0,fab5597e,00000000,00000000,00000010,0,1,1,0,ff,0,0,0,7e,81
43,43,0,0,0,0,0,0,0,fab55a81,00000000,00000000,00000010,0,1,1,0,00,0,0,0,81,7e
44,44,0,0,0,0,0,0,0,fab55b7e,00000000,00000000,00000010,0,1,1,0,ff,0,0,0,7e,81
45,45,0,0,0,0,0,0,0,fab55c81,00000000,00000000,00000010,0,1,1,0,00,0,0,0,81,7e
46,46,0,0,0,0,0,0,0,fab55d7e,00000000,00000000,00000010,0,1,1,0,ff,0,0,0,7e,81
47,47,0,0,0,0,0,0,0,fab55e81,00000000,00000000,00000010,0,1,1,0,00,0,0,0,81,7e
48,48,0,0,0,0,0,0,0,fab55f7e,00000000,00000000,00000010,0,1,1,0,ff,0,0,0,7e,81
49,49,0,0,0,0,0,0,0,fab56081,00000000,00000000,00000010,0,1,1,0,00,0,0,0,81,7e
50,50,0,0,0,0,0,0,0,fab5617e,00000000,00000000,00000010,0,1,1,0,ff,0,0,0,7e,81
51,51,0,0,0,0,0,0,0,fab56281,00000000,00000000,00000010,0,1,1,0,00,0,0,0,81,7e
52,52,0,0,0,0,0,0,0,fab5637e,00000000,00000000,00000010,0,1,1,0,ff,0,0,0,7e,81
53,53,0,0,0,0,0,0,0,fab56481,00000000,00000000,00000010,0,1,1,0,17,0,0,0,81,7e
54,54,0,0,0,0,0,0,0,fab5657e,00000000,00000000,00000010,0,1,1,0,00,0,0,0,7e,81
55,55,0,0,0,0,0,0,0,fab56681,00000000,00000000,00000010,0,1,1,0,ff,0,0,0,81,7e
56,56,0,0,0,0,0,0,0,fab5677e,00000000,00000000,00000010,0,1,1,0,00,0,0,0,7e,81
57,57,0,0,0,0,0,0,0,fab56881,00000000,00000000,00000010,0,1,1,0,ff,0,0,0,81,7e
58,58,0,0,0,0,0,0,0,fab5697e,00000000,00000000,00000010,0,1,1,0,00,0,0,0,7e,81
59,59,0,0,0,0,0,0,0,fab56a81,00000000,00000000,00000010,0,1,1,0,ff,0,0,0,81,7e
60,60,0,0,0,0,0,0,0,fab56b7e,00000000,00000000,00000010,0,1,1,0,00,0,0,0,7e,81
61,61,0,0,0,0,0,0,0,fab56c81,00000000,00000000,00000010,0,1,1,0,ff,0,0,0,81,7e
62,62,0,0,0,0,0,0,0,fab56d7e,00000000,00000000,00000010,0,1,1,0,00,0,0,0,7e,81
63,63,0,0,0,0,0,0,0,fab56e81,00000000,00000000,00000010,0,1,1,0,ff,0,0,0,81,7e
64,64,0,0,0,0,0,0,0,fab56f7e,00000000,00000000,00000010,0,1,1,0,00,0,0,0,7e,81
65,65,0,0,0,0,0,0,0,fab57081,00000000,00000000,00000010,0,1,1,0,ff,0,0,0,81,7e
66,66,0,0,0,0,0,0,0,fab5717e,00000000,00000000,00000010,0,1,1,0,00,0,0,0,7e,81
67,67,0,0,0,0,0,0,0,fab57281,00000000,00000000,00000010,0,1,1,0,ff,0,0,0,81,7e
68,68,0,0,0,0,0,0,0,fab5737e,00000000,00000000,00000010,0,1,1,0,00,0,0,0,7e,81
69,69,0,0,0,0,0,0,0,fab57481,00000000,00000000,00000010,0,1,1,0,ff,0,0,0,81,7e
70,70,0,0,0,0,0,0,0,fab5757e,00000000,00000000,00000010,0,1,1,0,00,0,0,0,7e,81
71,71,0,0,0,0,0,0,0,fab57681,00000000,00000000,00000010,0,1,1,0,ff,0,0,0,81,7e
72,72,0,0,0,0,0,0,0,fab5777e,00000000,00000000,00000010,0,1,1,0,00,0,0,0,7e,81
73,73,0,0,0,0,0,0,0,fab57881,00000000,00000000,00000010,0,1,1,0,ff,0,0,0,81,7e
74,74,0,0,0,0,0,0,0,fab5797e,00000000,00000000,00000010,0,1,1,0,00,0,0,0,7e,81
75,75,0,0,0,0,0,0,0,fab57a81,00000000,00000000,00000010,0,1,1,0,ff,0,0,0,81,7e
76,76,0,0,0,0,0,0,0,fab57b7e,00000000,00000000,00000010,0,1,1,0,00,0,0,0,7e,81
77,77,0,0,0,0,0,0,0,fab57c81,00000000,00000000,00000010,0,1,1,0,ff,0,0,0,81,7e
78,78,0,0,0,0,0,0,0,fab57d7e,00000000,00000000,00000010,0,1,1,0,00,0,0,0,7e,81
79,79,0,0,0,0,0,0,0,fab57e81,00000000,00000000,00000010,0,1,1,0,ff,0,0,0,81,7e
80,80,0,0,0,0,0,0,0,fab57f7e,00000000,00000000,00000010,0,1,1,0,00,0,0,0,7e,81
81,81,0,0,0,0,0,0,0,fab58081,00000000,00000000,00000010,0,1,1,0,ff,0,0,0,81,7e
82,82,0,0,0,0,0,0,0,fab5817e,00000000,00000000,00000010,0,1,1,0,00,0,0,0,7e,81
83,83,0,0,0,0,0,0,0,fab58281,00000000,00000000,00000010,0,1,1,0,ff,0,0,0,81,7e
84,84,0,0,0,0,0,0,0,fab5837e,00000000,00000000,00000010,0,1,1,0,00,0,0,0,7e,81
85,85,0,0,0,0,0,0,0,fab58481,00000000,00000000,00000010,0,1,1,0,ff,0,0,0,81,7e
86,86,0,0,0,0,0,0,0,fab5857e,00000000,00000000,00000010,0,1,1,0,00,0,0,0,7e,81
87,87,0,0,0,0,0,0,0,fab58681,00000000,00000000,00000010,0,1,1,0,ff,0,0,0,81,7e
88,88,0,0,0,0,0,0,0,fab5877e,00000000,00000000,00000010,0,1,1,0,00,0,0,0,7e,81
89,89,0,0,0,0,0,0,0,fab58881,00000000,00000000,00000010,0,1,1,0,ff,0,0,0,81,7e
90,90,0,0,0,0,0,0,0,fab5897e,00000000,00000000,00000010,0,1,1,0,00,0,0,0,7e,81
91,91,0,0,0,0,0,0,0,fab58a81,00000000,00000000,00000010,0,1,1,0,ff,0,0,0,81,7e
92,92,0,0,0,0,0,0,0,fab58b7e,00000000,00000000,00000010,0,1,1,0,00,0,0,0,7e,81
93,93,0,0,0,0,0,0,0,fab58c81,00000000,00000000,00000010,0,1,1,0,ff,0,0,0,81,7e
94,94,0,0,0,0,0,0,0,fab58d7e,00000000,00000000,00000010,0,1,1,0,00,0,0,0,7e,81
95,95,0,0,0,0,0,0,0,fab58e81,00000000,00000000,00000010,0,1,1,0,ff,0,0,0,81,7e
96,96,0,0,0,0,0,0,0,fab58f7e,00000000,00000000,00000010,0,1,1,0,00,0,0,0,7e,81
97,97,0,0,0,0,0,0,0,fab59081,00000000,00000000,00000010,0,1,1,0,ff,0,0,0,81,7e
98,98,0,0,0,0,0,0,0,fab5917e,00000000,00000000,00000010,0,1,1,0,00,0,0,0,7e,81
99,99,0,0,0,0,0,0,0,fab59281,00000000,00000000,00000010,0,1,1,0,ff,0,0,0,81,7e
100,100,0,0,0,0,0,0,0,fab5937e,00000000,00000000,00000010,0,1,1,0,00,0,0,0,7e,81
101,101,0,0,0,0,0,0,0,fab59481,00000000,00000000,00000010,0,1,1,0,ff,0,0,0,81,7e
102,102,0,0,0,0,0,0,0,fab5957e,00000000,00000000,00000010,0,1,1,0,00,0,0,0,7e,81
103,103,0,0,0,0,0,0,0,fab59681,00000000,00000000,00000010,0,1,1,0,ff,0,0,0,81,7e
104,104,0,0,0,0,0,0,0,fab5977e,00000000,00000000,00000010,0,1,1,0,00,0,0,0,7e,81
105,105,0,0,0,0,0,0,0,fab59881,00000000,00000000,00000010,0,1,1,0,ff,0,0,0,81,7e
106,106,0,0,0,0,0,0,0,fab5997e,00000000,00000000,00000010,0,1,1,0,00,0,0,0,7e,81
107,107,0,0,0,0,0,0,0,fab59a81,00000000,00000000,00000010,0,1,1,0,ff,0,0,0,81,7e
108,108,0,0,0,0,0,0,0,fab59b7e,00000000,00000000,00000010,0,1,1,0,00,0,0,0,7e,81
109,109,0,0,0,0,0,0,0,fab59c81,00000000,00000000,00000010,0,1,1,0,ff,0,0,0,81,7e
110,110,0,0,0,0,0,0,0,fab59d7e,00000000,00000000,00000010,0,1,1,0,00,0,0,0,7e,81
111,111,0,0,0,0,0,0,0,fab59e81,00000000,00000000,00000010,0,1,1,0,ff,0,0,0,81,7e
112,112,0,0,0,0,0,0,0,fab59f7e,00000000,00000000,00000010,0,1,1,0,00,0,0,0,7e,81
113,113,0,0,0,0,0,0,0,fab5a081,00000000,00000000,00000010,0,1,1,0,ff,0,0,0,81,7e
114,114,0,0,0,0,0,0,0,fab5a17e,00000000,00000000,00000010,0,1,1,0,00,0,0,0,7e,81
115,115,0,0,0,0,0,0,0,fab5a281,00000000,00000000,00000010,0,1,1,0,ff,0,0,0,81,7e
116,116,0,0,0,0,0,0,0,fab5a37e,00000000,00000000,00000010,0,1,1,0,00,0,0,0,7e,81
117,117,0,0,0,0,0,0,0,fab5a481,00000000,00000000,00000010,0,1,1,0,ff,0,0,0,81,7e
118,118,0,0,0,0,0,0,0,fab5a57e,00000000,00000000,00000010,0,1,1,0,00,0,0,0,7e,81
119,119,0,0,0,0,0,0,0,fab5a681,00000000,00000000,00000010,0,1,1,0,ff,0,0,0,81,7e
120,120,0,0,0,0,0,0,0,fab5a77e,00000000,00000000,00000010,0,1,1,0,00,0,0,0,7e,81
121,121,0,0,0,0,0,0,0,fab5a881,00000000,00000000,00000010,0,1,1,0,ff,0,0,0,81,7e
122,122,0,0,0,0,0,0,0,fab5a97e,00000000,00000000,00000010,0,1,1,0,00,0,0,0,7e,81
123,123,0,0,0,0,0,0,0,fab5aa81,00000000,00000000,00000010,0,1,1,0,ff,0,0,0,81,7e
124,124,0,0,0,0,0,0,0,fab5ab7e,00000000,00000000,00000010,0,1,1,0,00,0,0,0,7e,81
125,125,0,0,0,0,0,0,0,fab5ac81,00000000,00000000,00000010,0,1,1,0,ff,0,0,0,81,7e
126,126,0,0,0,0,0,0,0,fab5ad7e,00000000,00000000,00000010,0,1,1,0,00,0,0,0,7e,81
127,127,0,0,0,0,0,0,0,fab5ae81,00000000,00000000,00000010,0,1,1,0,ff,0,0,0,81,7e
128,128,0,0,0,0,0,0,0,fab5af7e,00000000,00000000,00000010,0,1,1,0,00,0,0,0,7e,81
129,129,0,0,0,0,0,0,0,fab5b081,00000000,00000000,00000010,0,1,1,0,ff,0,0,0,81,7e
130,130,0,0,0,0,0,0,0,fab5b17e,00000000,00000000,00000010,0,1,1,0,00,0,0,0,7e,81
131,131,0,0,0,0,0,0,0,fab5b281,00000000,00000000,00000010,0,1,1,0,ff,0,0,0,81,7e
132,132,0,0,0,0,0,0,0,fab5b37e,00000000,00000000,00000010,0,1,1,0,00,0,0,0,7e,81
133,133,0,0,0,0,0,0,0,fab5b481,00000000,00000000,00000010,0,1,1,0,ff,0,0,0,81,7e
134,134,0,0,0,0,0,0,0,fab5b57e,00000000,00000000,00000010,0,1,1,0,00,0,0,0,7e,81
135,135,0,0,0,0,0,0,0,fab5b681,00000000,00000000,00000010,0,1,1,0,ff,0,0,0,81,7e
136,136,0,0,0,0,0,0,0,fab5b77e,00000000,00000000,00000010,0,1,1,0,00,0,0,0,7e,81
137,137,0,0,0,0,0,0,0,fab5b881,00000000,00000000,00000010,0,1,1,0,ff,0,0,0,81,7e
138,138,0,0,0,0,0,0,0,fab5b97e,00000000,00000000,00000010,0,1,1,0,00,0,0,0,7e,81
139,139,0,0,0,0,0,0,0,fab5ba81,00000000,00000000,00000010,0,1,1,0,ff,0,0,0,81,7e
140,140,0,0,0,0,0,0,0,fab5bb7e,00000000,00000000,00000010,0,1,1,0,00,0,0,0,7e,81
141,141,0,0,0,0,0,0,0,fab5bc81,00000000,00000000,00000010,0,1,1,0,ff,0,0,0,81,7e
142,142,0,0,0,0,0,0,0,fab5bd7e,00000000,00000000,00000010,0,1,1,0,00,0,0,0,7e,81
143,143,0,0,0,0,0,0,0,fab5be81,00000000,00000000,00000010,0,1,1,0,ff,0,0,0,81,7e
144,144,0,0,0,0,0,0,0,fab5bf7e,00000000,00000000,00000010,0,1,1,0,00,0,0,0,7e,81
145,145,0,0,0,0,0,0,0,fab5c081,00000000,00000000,00000010,0,1,1,0,ff,0,0,0,81,7e
146,146,0,0,0,0,0,0,0,fab5c17e,00000000,00000000,00000010,0,1,1,0,00,0,0,0,7e,81
147,147,0,0,0,0,0,0,0,fab5c281,00000000,00000000,00000010,0,1,1,0,ff,0,0,0,81,7e
148,148,0,0,0,0,0,0,0,fab5c37e,00000000,00000000,00000010,0,1,1,0,00,0,0,0,7e,81
149,149,0,0,0,0,0,0,0,fab5c481,00000000,00000000,00000010,0,1,1,0,ff,0,0,0,81,7e
150,150,0,0,0,0,0,0,0,fab5c57e,00000000,00000000,00000010,0,1,1,0,00,0,0,0,7e,81
151,151,0,0,0,0,0,0,0,fab5c681,00000000,00000000,00000010,0,1,1,0,ff,0,0,0,81,7e
152,152,0,0,0,0,0,0,0,fab5c77e,00000000,00000000,00000010,0,1,1,0,00,0,0,0,7e,81
153,153,0,0,0,0,0,0,0,fab5c881,00000000,00000000,00000010,0,1,1,0,ff,0,0,0,81,7e
154,154,0,0,0,0,0,0,0,fab5c97e,00000000,00000000,00000010,0,1,1,0,00,0,0,0,7e,81
155,155,0,0,0,0,0,0,0,fab5ca81,00000000,00000000,00000010,0,1,1,0,ff,0,0,0,81,7e
156,156,0,0,0,0,0,0,0,fab5cb7e,00000000,00000000,00000010,0,1,1,0,00,0,0,0,7e,81
157,157,0,0,0,0,0,0,0,fab5cc81,00000000,00000000,00000010,0,1,1,0,ff,0,0,0,81,7e
158,158,0,0,0,0,0,0,0,fab5cd7e,00000000,00000000,00000010,0,1,1,0,00,0,0,0,7e,81
159,159,0,0,0,0,0,0,0,fab5ce81,00000000,00000000,00000010,0,1,1,0,ff,0,0,0,81,7e
160,160,0,0,0,0,0,0,0,fab5cf7e,00000000,00000000,00000010,0,1,1,0,00,0,0,0,7e,81
161,161,0,0,0,0,0,0,0,fab5d081,00000000,00000000,00000010,0,1,1,0,ff,0,0,0,81,7e
162,162,0,0,0,0,0,0,0,fab5d17e,00000000,00000000,00000010,0,1,1,0,00,0,0,0,7e,81
163,163,0,0,0,0,0,0,0,fab5d281,00000000,00000000,00000010,0,1,1,0,ff,0,0,0,81,7e
164,164,0,0,0,0,0,0,0,fab5d37e,00000000,00000000,00000010,0,1,1,0,00,0,0,0,7e,81
165,165,0,0,0,0,0,0,0,fab5d481,00000000,00000000,00000010,0,1,1,0,ff,0,0,0,81,7e
166,166,0,0,0,0,0,0,0,fab5d57e,00000000,00000000,00000010,0,1,1,0,00,0,0,0,7e,81
167,167,0,0,0,0,0,0,0,fab5d681,00000000,00000000,00000010,0,1,1,0,ff,0,0,0,81,7e
168,168,0,0,0,0,0,0,0,fab5d77e,00000000,00000000,00000010,0,1,1,0,00,0,0,0,7e,81
169,169,0,0,0,0,0,0,0,fab5d881,00000000,00000000,00000010,0,1,1,0,ff,0,0,0,81,7e
170,170,0,0,0,0,0,0,0,fab5d97e,00000000,00000000,00000010,0,1,1,0,00,0,0,0,7e,81
171,171,0,0,0,0,0,0,0,fab5da81,00000000,00000000,00000010,0,1,1,0,ff,0,0,0,81,7e
172,172,0,0,0,0,0,0,0,fab5db7e,00000000,00000000,00000010,0,1,1,0,00,0,0,0,7e,81
173,173,0,0,0,0,0,0,0,fab5dc81,00000000,00000000,00000010,0,1,1,0,ff,0,0,0,81,7e
174,174,0,0,0,0,0,0,0,fab5dd7e,00000000,00000000,00000010,0,1,1,0,00,0,0,0,7e,81
175,175,0,0,0,0,0,0,0,fab5de81,00000000,00000000,00000010,0,1,1,0,ff,0,0,0,81,7e
176,176,0,0,0,0,0,0,0,fab5df7e,00000000,00000000,00000010,0,1,1,0,00,0,0,0,7e,81
177,177,0,0,0,0,0,0,0,fab5e081,00000000,00000000,00000010,0,1,1,0,ff,0,0,0,81,7e
178,178,0,0,0,0,0,0,0,fab5e17e,00000000,00000000,00000010,0,1,1,0,00,0,0,0,7e,81
179,179,0,0,0,0,0,0,0,fab5e281,00000000,00000000,00000010,0,1,1,0,ff,0,0,0,81,7e
180,180,0,0,0,0,0,0,0,fab5e37e,00000000,00000000,00000010,0,1,1,0,00,0,0,0,7e,81
181,181,0,0,0,0,0,0,0,fab5e481,00000000,00000000,00000010,0,1,1,0,ff,0,0,0,81,7e
182,182,0,0,0,0,0,0,0,fab5e57e,00000000,00000000,00000010,0,1,1,0,00,0,0,0,7e,81
183,183,0,0,0,0,0,0,0,fab5e681,00000000,00000000,00000010,0,1,1,0,ff,0,0,0,81,7e
184,184,0,0,0,0,0,0,0,fab5e77e,00000000,00000000,00000010,0,1,1,0,00,0,0,0,7e,81
185,185,0,0,0,0,0,0,0,fab5e881,00000000,00000000,00000010,0,1,1,0,ff,0,0,0,81,7e
186,186,0,0,0,0,0,0,0,fab5e97e,00000000,00000000,00000010,0,1,1,0,00,0,0,0,7e,81
187,187,0,0,0,0,0,0,0,fab5ea81,00000000,00000000,00000010,0,1,1,0,ff,0,0,0,81,7e
188,188,0,0,0,0,0,0,0,fab5eb7e,00000000,00000000,00000010,0,1,1,0,00,0,0,0,7e,81
189,189,0,0,0,0,0,0,0,fab5ec81,00000000,00000000,00000010,0,1,1,0,ff,0,0,0,81,7e
190,190,0,0,0,0,0,0,0,fab5ed7e,00000000,00000000,00000010,0,1,1,0,00,0,0,0,7e,81
191,191,0,0,0,0,0,0,0,fab5ee81,00000000,00000000,00000010,0,1,1,0,ff,0,0,0,81,7e
192,192,0,0,0,0,0,0,0,fab5ef7e,00000000,00000000,00000010,0,1,1,0,00,0,0,0,7e,81
193,193,0,0,0,0,0,0,0,fab5f081,00000000,00000000,00000010,0,1,1,0,ff,0,0,0,81,7e
194,194,0,0,0,0,0,0,0,fab5f17e,00000000,00000000,00000010,0,1,1,0,00,0,0,0,7e,81
195,195,0,0,0,0,0,0,0,fab5f281,00000000,00000000,00000010,0,1,1,0,ff,0,0,0,81,7e
196,196,0,0,0,0,0,0,0,fab5f37e,00000000,00000000,00000010,0,1,1,0,00,0,0,0,7e,81
197,197,0,0,0,0,0,0,0,fab5f481,00000000,00000000,00000010,0,1,1,0,ff,0,0,0,81,7e
198,198,0,0,0,0,0,0,0,fab5f57e,00000000,00000000,00000010,0,1,1,0,00,0,0,0,7e,81
199,199,0,0,0,0,0,0,0,fab5f681,00000000,00000000,00000010,0,1,1,0,ff,0,0,0,81,7e
200,200,0,0,0,0,0,0,0,fab5f77e,00000000,00000000,00000010,0,1,1,0,00,0,0,0,7e,81
201,201,0,0,0,0,0,0,0,fab5f881,00000000,00000000,00000010,0,1,1,0,ff,0,0,0,81,7e
202,202,0,0,0,0,0,0,0,fab5f97e,00000000,00000000,00000010,0,1,1,0,00,0,0,0,7e,81
203,203,0,0,0,0,0,0,0,fab5fa81,00000000,00000000,00000010,0,1,1,0,ff,0,0,0,81,7e
204,204,0,0,0,0,0,0,0,fab5fb7e,00000000,00000000,00000010,0,1,1,0,00,0,0,0,7e,81
205,205,0,0,0,0,0,0,0,fab5fc81,00000000,00000000,00000010,0,1,1,0,ff,0,0,0,81,7e
206,206,0,0,0,0,0,0,0,fab5fd7e,00000000,00000000,00000010,0,1,1,0,00,0,0,0,7e,81
207,207,0,0,0,0,0,0,0,fab5fe81,00000000,00000000,00000010,0,1,1,0,ff,0,0,0,81,7e
208,208,0,0,0,0,0,0,0,fab5ff7e,00000000,00000000,00000010,0,1,1,0,00,0,0,0,7e,81
209,209,0,0,0,0,0,0,0,fab60081,00000000,00000000,00000010,0,1,1,0,ff,0,0,0,81,7e
210,210,0,0,0,0,0,0,0,fab6017e,00000000,00000000,00000010,0,1,1,0,00,0,0,0,7e,81
211,211,0,0,0,0,0,0,0,fab60281,00000000,00000000,00000010,0,1,1,0,ff,0,0,0,81,7e
212,212,0,0,0,0,0,0,0,fab6037e,00000000,00000000,00000010,0,1,1,0,00,0,0,0,7e,81
213,213,0,0,0,0,0,0,0,fab60481,00000000,00000000,00000010,0,1,1,0,ff,0,0,0,81,7e
214,214,0,0,0,0,0,0,0,fab6057e,00000000,00000000,00000010,0,1,1,0,00,0,0,0,7e,81
215,215,0,0,0,0,0,0,0,fab60681,00000000,00000000,00000010,0,1,1,0,ff,0,0,0,81,7e
216,216,0,0,0,0,0,0,0,fab6077e,00000000,00000000,00000010,0,1,1,0,00,0,0,0,7e,81
217,217,0,0,0,0,0,0,0,fab60881,00000000,00000000,00000010,0,1,1,0,ff,0,0,0,81,7e
218,218,0,0,0,0,0,0,0,fab6097e,00000000,00000000,00000010,0,1,1,0,00,0,0,0,7e,81
219,219,0,0,0,0,0,0,0,fab60a81,00000000,00000000,00000010,0,1,1,0,ff,0,0,0,81,7e
220,220,0,0,0,0,0,0,0,fab60b7e,00000000,00000000,00000010,0,1,1,0,00,0,0,0,7e,81
221,221,0,0,0,0,0,0,0,fab60c81,00000000,00000000,00000010,0,1,1,0,ff,0,0,0,81,7e
222,222,0,0,0,0,0,0,0,fab60d7e,00000000,00000000,00000010,0,1,1,0,00,0,0,0,7e,81
223,223,0,0,0,0,0,0,0,fab60e81,00000000,00000000,00000010,0,1,1,0,ff,0,0,0,81,7e
224,224,0,0,0,0,0,0,0,fab60f7e,00000000,00000000,00000010,0,1,1,0,00,0,0,0,7e,81
225,225,0,0,0,0,0,0,0,fab61081,00000000,00000000,00000010,0,1,1,0,ff,0,0,0,81,7e
226,226,0,0,0,0,0,0,0,fab6117e,00000000,00000000,00000010,0,1,1,0,00,0,0,0,7e,81
227,227,0,0,0,0,0,0,0,fab61281,00000000,00000000,00000010,0,1,1,0,ff,0,0,0,81,7e
228,228,0,0,0,0,0,0,0,fab6137e,00000000,00000000,00000010,0,1,1,0,00,0,0,0,7e,81
229,229,0,0,0,0,0,0,0,fab61481,00000000,00000000,00000010,0,1,1,0,ff,0,0,0,81,7e
230,230,0,0,0,0,0,0,0,fab6157e,00000000,00000000,00000010,0,1,1,0,00,0,0,0,7e,81
231,231,0,0,0,0,0,0,0,fab61681,00000000,00000000,00000010,0,1,1,0,ff,0,0,0,81,7e
232,232,0,0,0,0,0,0,0,fab6177e,00000000,00000000,00000010,0,1,1,0,00,0,0,0,7e,81
233,233,0,0,0,0,0,0,0,fab61881,00000000,00000000,00000010,0,1,1,0,ff,0,0,0,81,7e
234,234,0,0,0,0,0,0,0,fab6197e,00000000,00000000,00000010,0,1,1,0,00,0,0,0,7e,81
235,235,0,0,0,0,0,0,0,fab61a81,00000000,00000000,00000010,0,1,1,0,ff,0,0,0,81,7e
236,236,0,0,0,0,0,0,0,fab61b7e,00000000,00000000,00000010,0,1,1,0,00,0,0,0,7e,81
237,237,0,0,0,0,0,0,0,fab61c81,00000000,00000000,00000010,0,1,1,0,ff,0,0,0,81,7e
238,238,0,0,0,0,0,0,0,fab61d7e,00000000,00000000,00000010,0,1,1,0,00,0,0,0,7e,81
239,239,0,0,0,0,0,0,0,fab61e81,00000000,00000000,00000010,0,1,1,0,ff,0,0,0,81,7e
