Sample in Buffer,Sample in Window,TRIGGER,slaves/slave_vfat3/fifo_out_w_en,slaves/slave_vfat3/fifo_in_w_en,slaves/slave_vfat3/fifo_out_r_en,slaves/slave_vfat3/fifo_in_r_en,slaves/slave_vfat3/fifo_out_valid,slaves/slave_vfat3/fifo_in_valid,slaves/slave_vfat3/fifo_out_data_in[31:0],slaves/slave_vfat3/fifo_out_data_out[31:0],slaves/slave_vfat3/fifo_in_data_in[31:0],slaves/slave_vfat3/fifo_in_data_out[31:0],slaves/slave_vfat3/fifo_out_empty,slaves/slave_vfat3/fifo_in_empty,slaves/slave_vfat3/fifo_out_full,slaves/slave_vfat3/fifo_in_full,slaves/slave_vfat3/ser_d_in[7:0],slaves/slave_vfat3/reset,slaves/slave_vfat3/rst40,slaves/slave_vfat3/reset_fifo,slaves/slave_vfat3/data_bus_in[7:0],slaves/slave_vfat3/d_sync[7:0]
0,0,1,0,0,0,1,0,0,f68d5181,9481e65c,00000000,00000000,1,0,0,0,ff,0,0,0,81,7e
1,1,0,0,0,0,1,0,1,f68d527e,9481e65c,00000000,00000000,1,0,0,0,00,0,0,0,7e,81
2,2,0,0,0,0,1,0,1,f68d5381,9481e65c,00000000,00000000,1,0,0,0,ff,0,0,0,81,7e
3,3,0,0,0,0,0,0,1,f68d547e,9481e65c,00000000,00000000,1,1,0,0,17,0,0,0,7e,81
4,4,0,0,0,0,0,0,0,f68d5581,9481e65c,00000000,00000000,1,1,0,0,17,0,0,0,81,7e
5,5,0,0,0,0,0,0,0,f68d567e,9481e65c,00000000,00000000,1,1,0,0,17,0,0,0,7e,81
6,6,0,0,0,0,0,0,0,f68d5781,9481e65c,00000000,00000000,1,1,0,0,00,0,0,0,81,7e
7,7,0,0,0,0,0,0,0,f68d587e,9481e65c,00000000,00000000,1,1,0,0,ff,0,0,0,7e,81
8,8,0,0,0,0,0,0,0,f68d5981,9481e65c,00000000,00000000,1,1,0,0,00,0,0,0,81,7e
9,9,0,0,0,0,0,0,0,f68d5a7e,9481e65c,00000000,00000000,1,1,0,0,ff,0,0,0,7e,81
10,10,0,0,0,0,0,0,0,f68d5b81,9481e65c,00000000,00000000,1,1,0,0,00,0,0,0,81,7e
11,11,0,0,0,0,0,0,0,f68d5c7e,9481e65c,00000000,00000000,1,1,0,0,ff,0,0,0,7e,81
12,12,0,0,0,0,0,0,0,f68d5d81,9481e65c,00000000,00000000,1,1,0,0,00,0,0,0,81,7e
13,13,0,0,0,0,0,0,0,f68d5e7e,9481e65c,00000000,00000000,1,1,0,0,ff,0,0,0,5c,81
14,14,0,0,0,0,0,0,0,f68d5f81,9481e65c,00000000,00000000,1,1,0,0,00,0,0,0,7e,5c
15,15,0,1,0,0,0,0,0,f68d605c,9481e65c,00000000,00000000,1,1,0,0,ff,0,0,0,81,7e
16,16,0,0,0,0,0,0,0,f68d617e,9481e65c,00000000,00000000,1,1,0,0,00,0,0,0,7e,81
17,17,0,0,0,0,0,0,0,f68d6281,9481e65c,00000000,00000000,1,1,0,0,ff,0,0,0,81,7e
18,18,0,0,0,0,0,0,0,f68d637e,9481e65c,00000000,00000000,1,1,0,0,00,0,0,0,7e,81
19,19,0,0,0,0,0,0,0,f68d6481,9481e65c,00000000,00000000,1,1,0,0,ff,0,0,0,81,7e
20,20,0,0,0,0,0,0,0,f68d657e,9481e65c,00000000,00000000,1,1,0,0,00,0,0,0,7e,81
21,21,0,0,0,0,0,0,0,f68d6681,9481e65c,00000000,00000000,1,1,0,0,ff,0,0,0,81,7e
22,22,0,0,0,0,0,0,0,f68d677e,9481e65c,00000000,00000000,0,1,0,0,00,0,0,0,7e,81
23,23,0,0,0,0,0,0,0,f68d6881,9481e65c,00000000,00000000,0,1,0,0,ff,0,0,0,81,7e
24,24,0,0,0,0,0,0,0,f68d697e,9481e65c,00000000,00000000,0,1,0,0,00,0,0,0,7e,81
25,25,0,0,0,0,0,0,0,f68d6a81,9481e65c,00000000,00000000,0,1,0,0,ff,0,0,0,81,7e
26,26,0,0,0,0,0,0,0,f68d6b7e,9481e65c,00000000,00000000,0,1,0,0,00,0,0,0,7e,81
27,27,0,0,0,0,0,0,0,f68d6c81,9481e65c,00000000,00000000,0,1,0,0,ff,0,0,0,81,7e
28,28,0,0,0,0,0,0,0,f68d6d7e,9481e65c,00000000,00000000,0,1,0,0,00,0,0,0,7e,81
29,29,0,0,0,0,0,0,0,f68d6e81,9481e65c,00000000,00000000,0,1,0,0,ff,0,0,0,81,7e
30,30,0,0,0,0,0,0,0,f68d6f7e,9481e65c,00000000,00000000,0,1,0,0,00,0,0,0,7e,81
31,31,0,0,0,0,0,0,0,f68d7081,9481e65c,00000000,00000000,0,1,0,0,ff,0,0,0,81,7e
32,32,0,0,0,0,0,0,0,f68d717e,9481e65c,00000000,00000000,0,1,0,0,00,0,0,0,7e,81
33,33,0,0,0,0,0,0,0,f68d7281,9481e65c,00000000,00000000,0,1,0,0,ff,0,0,0,81,7e
34,34,0,0,0,0,0,0,0,f68d737e,9481e65c,00000000,00000000,0,1,0,0,00,0,0,0,7e,81
35,35,0,0,0,0,0,0,0,f68d7481,9481e65c,00000000,00000000,0,1,0,0,ff,0,0,0,81,7e
36,36,0,0,0,0,0,0,0,f68d757e,9481e65c,00000000,00000000,0,1,0,0,00,0,0,0,7e,81
37,37,0,0,0,0,0,0,0,f68d7681,9481e65c,00000000,00000000,0,1,0,0,ff,0,0,0,81,7e
38,38,0,0,0,0,0,0,0,f68d777e,9481e65c,00000000,00000000,0,1,0,0,00,0,0,0,7e,81
39,39,0,0,0,0,0,0,0,f68d7881,9481e65c,00000000,00000000,0,1,0,0,ff,0,0,0,81,7e
40,40,0,0,0,0,0,0,0,f68d797e,9481e65c,00000000,00000000,0,1,0,0,00,0,0,0,7e,81
41,41,0,0,0,0,0,0,0,f68d7a81,9481e65c,00000000,00000000,0,1,0,0,ff,0,0,0,81,7e
42,42,0,0,0,0,0,0,0,f68d7b7e,9481e65c,00000000,00000000,0,1,0,0,00,0,0,0,7e,81
43,43,0,0,0,0,0,0,0,f68d7c81,9481e65c,00000000,00000000,0,1,0,0,ff,0,0,0,81,7e
44,44,0,0,0,0,0,0,0,f68d7d7e,9481e65c,00000000,00000000,0,1,0,0,00,0,0,0,7e,81
45,45,0,0,0,0,0,0,0,f68d7e81,9481e65c,00000000,00000000,0,1,0,0,ff,0,0,0,81,7e
46,46,0,0,0,0,0,0,0,f68d7f7e,9481e65c,00000000,00000000,0,1,0,0,00,0,0,0,7e,81
47,47,0,0,0,0,0,0,0,f68d8081,9481e65c,00000000,00000000,0,1,0,0,ff,0,0,0,81,7e
48,48,0,0,0,0,0,0,0,f68d817e,9481e65c,00000000,00000000,0,1,0,0,00,0,0,0,7e,81
49,49,0,0,0,0,0,0,0,f68d8281,9481e65c,00000000,00000000,0,1,0,0,ff,0,0,0,81,7e
50,50,0,0,0,0,0,0,0,f68d837e,9481e65c,00000000,00000000,0,1,0,0,00,0,0,0,7e,81
51,51,0,0,0,0,0,0,0,f68d8481,9481e65c,00000000,00000000,0,1,0,0,ff,0,0,0,81,7e
52,52,0,0,0,0,0,0,0,f68d857e,9481e65c,00000000,00000000,0,1,0,0,00,0,0,0,7e,81
53,53,0,0,0,0,0,0,0,f68d8681,9481e65c,00000000,00000000,0,1,0,0,ff,0,0,0,81,7e
54,54,0,0,0,0,0,0,0,f68d877e,9481e65c,00000000,00000000,0,1,0,0,00,0,0,0,7e,81
55,55,0,0,0,0,0,0,0,f68d8881,9481e65c,00000000,00000000,0,1,0,0,ff,0,0,0,81,7e
56,56,0,0,0,0,0,0,0,f68d897e,9481e65c,00000000,00000000,0,1,0,0,00,0,0,0,7e,81
57,57,0,0,0,0,0,0,0,f68d8a81,9481e65c,00000000,00000000,0,1,0,0,ff,0,0,0,81,7e
58,58,0,0,0,0,0,0,0,f68d8b7e,9481e65c,00000000,00000000,0,1,0,0,00,0,0,0,7e,81
59,59,0,0,0,0,0,0,0,f68d8c81,9481e65c,00000000,00000000,0,1,0,0,ff,0,0,0,81,7e
60,60,0,0,0,0,0,0,0,f68d8d7e,9481e65c,00000000,00000000,0,1,0,0,00,0,0,0,7e,81
61,61,0,0,0,0,0,0,0,f68d8e81,9481e65c,00000000,00000000,0,1,0,0,ff,0,0,0,81,7e
62,62,0,0,0,0,0,0,0,f68d8f7e,9481e65c,00000000,00000000,0,1,0,0,00,0,0,0,7e,81
63,63,0,0,0,0,0,0,0,f68d9081,9481e65c,00000000,00000000,0,1,0,0,ff,0,0,0,81,7e
64,64,0,0,0,0,0,0,0,f68d917e,9481e65c,00000000,00000000,0,1,0,0,00,0,0,0,7e,81
65,65,0,0,0,0,0,0,0,f68d9281,9481e65c,00000000,00000000,0,1,0,0,ff,0,0,0,81,7e
66,66,0,0,0,0,0,0,0,f68d937e,9481e65c,00000000,00000000,0,1,0,0,00,0,0,0,7e,81
67,67,0,0,0,0,0,0,0,f68d9481,9481e65c,00000000,00000000,0,1,0,0,ff,0,0,0,81,7e
68,68,0,0,0,0,0,0,0,f68d957e,9481e65c,00000000,00000000,0,1,0,0,00,0,0,0,7e,81
69,69,0,0,0,0,0,0,0,f68d9681,9481e65c,00000000,00000000,0,1,0,0,ff,0,0,0,81,7e
70,70,0,0,0,0,0,0,0,f68d977e,9481e65c,00000000,00000000,0,1,0,0,00,0,0,0,7e,81
71,71,0,0,0,0,0,0,0,f68d9881,9481e65c,00000000,00000000,0,1,0,0,ff,0,0,0,81,7e
72,72,0,0,0,0,0,0,0,f68d997e,9481e65c,00000000,00000000,0,1,0,0,00,0,0,0,7e,81
73,73,0,0,0,0,0,0,0,f68d9a81,9481e65c,00000000,00000000,0,1,0,0,ff,0,0,0,81,7e
74,74,0,0,0,0,0,0,0,f68d9b7e,9481e65c,00000000,00000000,0,1,0,0,00,0,0,0,7e,81
75,75,0,0,0,0,0,0,0,f68d9c81,9481e65c,00000000,00000000,0,1,0,0,ff,0,0,0,81,7e
76,76,0,0,0,0,0,0,0,f68d9d7e,9481e65c,00000000,00000000,0,1,0,0,00,0,0,0,7e,81
77,77,0,0,0,0,0,0,0,f68d9e81,9481e65c,00000000,00000000,0,1,0,0,ff,0,0,0,81,7e
78,78,0,0,0,0,0,0,0,f68d9f7e,9481e65c,00000000,00000000,0,1,0,0,00,0,0,0,7e,81
79,79,0,0,0,0,0,0,0,f68da081,9481e65c,00000000,00000000,0,1,0,0,ff,0,0,0,81,7e
80,80,0,0,0,0,0,0,0,f68da17e,9481e65c,00000000,00000000,0,1,0,0,00,0,0,0,7e,81
81,81,0,0,0,0,0,0,0,f68da281,9481e65c,00000000,00000000,0,1,0,0,ff,0,0,0,81,7e
82,82,0,0,0,0,0,0,0,f68da37e,9481e65c,00000000,00000000,0,1,0,0,00,0,0,0,7e,81
83,83,0,0,0,0,0,0,0,f68da481,9481e65c,00000000,00000000,0,1,0,0,ff,0,0,0,81,7e
84,84,0,0,0,0,0,0,0,f68da57e,9481e65c,00000000,00000000,0,1,0,0,00,0,0,0,7e,81
85,85,0,0,0,0,0,0,0,f68da681,9481e65c,00000000,00000000,0,1,0,0,ff,0,0,0,81,7e
86,86,0,0,0,0,0,0,0,f68da77e,9481e65c,00000000,00000000,0,1,0,0,00,0,0,0,7e,81
87,87,0,0,0,0,0,0,0,f68da881,9481e65c,00000000,00000000,0,1,0,0,ff,0,0,0,81,7e
88,88,0,0,0,0,0,0,0,f68da97e,9481e65c,00000000,00000000,0,1,0,0,00,0,0,0,7e,81
89,89,0,0,0,0,0,0,0,f68daa81,9481e65c,00000000,00000000,0,1,0,0,ff,0,0,0,81,7e
90,90,0,0,0,0,0,0,0,f68dab7e,9481e65c,00000000,00000000,0,1,0,0,00,0,0,0,7e,81
91,91,0,0,0,0,0,0,0,f68dac81,9481e65c,00000000,00000000,0,1,0,0,ff,0,0,0,81,7e
92,92,0,0,0,0,0,0,0,f68dad7e,9481e65c,00000000,00000000,0,1,0,0,00,0,0,0,7e,81
93,93,0,0,0,0,0,0,0,f68dae81,9481e65c,00000000,00000000,0,1,0,0,ff,0,0,0,81,7e
94,94,0,0,0,0,0,0,0,f68daf7e,9481e65c,00000000,00000000,0,1,0,0,00,0,0,0,7e,81
95,95,0,0,0,0,0,0,0,f68db081,9481e65c,00000000,00000000,0,1,0,0,ff,0,0,0,81,7e
96,96,0,0,0,0,0,0,0,f68db17e,9481e65c,00000000,00000000,0,1,0,0,00,0,0,0,7e,81
97,97,0,0,0,0,0,0,0,f68db281,9481e65c,00000000,00000000,0,1,0,0,ff,0,0,0,81,7e
98,98,0,0,0,0,0,0,0,f68db37e,9481e65c,00000000,00000000,0,1,0,0,00,0,0,0,7e,81
99,99,0,0,0,0,0,0,0,f68db481,9481e65c,00000000,00000000,0,1,0,0,ff,0,0,0,81,7e
100,100,0,0,0,0,0,0,0,f68db57e,9481e65c,00000000,00000000,0,1,0,0,00,0,0,0,7e,81
101,101,0,0,0,0,0,0,0,f68db681,9481e65c,00000000,00000000,0,1,0,0,ff,0,0,0,81,7e
102,102,0,0,0,0,0,0,0,f68db77e,9481e65c,00000000,00000000,0,1,0,0,00,0,0,0,7e,81
103,103,0,0,0,0,0,0,0,f68db881,9481e65c,00000000,00000000,0,1,0,0,ff,0,0,0,81,7e
104,104,0,0,0,0,0,0,0,f68db97e,9481e65c,00000000,00000000,0,1,0,0,00,0,0,0,7e,81
105,105,0,0,0,0,0,0,0,f68dba81,9481e65c,00000000,00000000,0,1,0,0,ff,0,0,0,81,7e
106,106,0,0,0,0,0,0,0,f68dbb7e,9481e65c,00000000,00000000,0,1,0,0,00,0,0,0,7e,81
107,107,0,0,0,0,0,0,0,f68dbc81,9481e65c,00000000,00000000,0,1,0,0,ff,0,0,0,81,7e
108,108,0,0,0,0,0,0,0,f68dbd7e,9481e65c,00000000,00000000,0,1,0,0,00,0,0,0,7e,81
109,109,0,0,0,0,0,0,0,f68dbe81,9481e65c,00000000,00000000,0,1,0,0,ff,0,0,0,81,7e
110,110,0,0,0,0,0,0,0,f68dbf7e,9481e65c,00000000,00000000,0,1,0,0,00,0,0,0,7e,81
111,111,0,0,0,0,0,0,0,f68dc081,9481e65c,00000000,00000000,0,1,0,0,ff,0,0,0,81,7e
112,112,0,0,0,0,0,0,0,f68dc17e,9481e65c,00000000,00000000,0,1,0,0,00,0,0,0,7e,81
113,113,0,0,0,0,0,0,0,f68dc281,9481e65c,00000000,00000000,0,1,0,0,ff,0,0,0,81,7e
114,114,0,0,0,0,0,0,0,f68dc37e,9481e65c,00000000,00000000,0,1,0,0,00,0,0,0,7e,81
115,115,0,0,0,0,0,0,0,f68dc481,9481e65c,00000000,00000000,0,1,0,0,ff,0,0,0,81,7e
116,116,0,0,0,0,0,0,0,f68dc57e,9481e65c,00000000,00000000,0,1,0,0,00,0,0,0,7e,81
117,117,0,0,0,0,0,0,0,f68dc681,9481e65c,00000000,00000000,0,1,0,0,ff,0,0,0,81,7e
118,118,0,0,0,0,0,0,0,f68dc77e,9481e65c,00000000,00000000,0,1,0,0,00,0,0,0,7e,81
119,119,0,0,0,0,0,0,0,f68dc881,9481e65c,00000000,00000000,0,1,0,0,ff,0,0,0,81,7e
120,120,0,0,0,0,0,0,0,f68dc97e,9481e65c,00000000,00000000,0,1,0,0,00,0,0,0,7e,81
121,121,0,0,0,0,0,0,0,f68dca81,9481e65c,00000000,00000000,0,1,0,0,ff,0,0,0,81,7e
122,122,0,0,0,0,0,0,0,f68dcb7e,9481e65c,00000000,00000000,0,1,0,0,00,0,0,0,7e,81
123,123,0,0,0,0,0,0,0,f68dcc81,9481e65c,00000000,00000000,0,1,0,0,ff,0,0,0,81,7e
124,124,0,0,0,0,0,0,0,f68dcd7e,9481e65c,00000000,00000000,0,1,0,0,00,0,0,0,7e,81
125,125,0,0,0,0,0,0,0,f68dce81,9481e65c,00000000,00000000,0,1,0,0,ff,0,0,0,81,7e
126,126,0,0,0,0,0,0,0,f68dcf7e,9481e65c,00000000,00000000,0,1,0,0,00,0,0,0,7e,81
127,127,0,0,0,0,0,0,0,f68dd081,9481e65c,00000000,00000000,0,1,0,0,ff,0,0,0,81,7e
128,128,0,0,0,0,0,0,0,f68dd17e,9481e65c,00000000,00000000,0,1,0,0,00,0,0,0,7e,81
129,129,0,0,0,0,0,0,0,f68dd281,9481e65c,00000000,00000000,0,1,0,0,ff,0,0,0,81,7e
130,130,0,0,0,0,0,0,0,f68dd37e,9481e65c,00000000,00000000,0,1,0,0,00,0,0,0,7e,81
131,131,0,0,0,0,0,0,0,f68dd481,9481e65c,00000000,00000000,0,1,0,0,ff,0,0,0,81,7e
132,132,0,0,0,0,0,0,0,f68dd57e,9481e65c,00000000,00000000,0,1,0,0,00,0,0,0,7e,81
133,133,0,0,0,0,0,0,0,f68dd681,9481e65c,00000000,00000000,0,1,0,0,ff,0,0,0,81,7e
134,134,0,0,0,0,0,0,0,f68dd77e,9481e65c,00000000,00000000,0,1,0,0,00,0,0,0,7e,81
135,135,0,0,0,0,0,0,0,f68dd881,9481e65c,00000000,00000000,0,1,0,0,ff,0,0,0,81,7e
136,136,0,0,0,0,0,0,0,f68dd97e,9481e65c,00000000,00000000,0,1,0,0,00,0,0,0,7e,81
137,137,0,0,0,0,0,0,0,f68dda81,9481e65c,00000000,00000000,0,1,0,0,ff,0,0,0,81,7e
138,138,0,0,0,0,0,0,0,f68ddb7e,9481e65c,00000000,00000000,0,1,0,0,00,0,0,0,7e,81
139,139,0,0,0,0,0,0,0,f68ddc81,9481e65c,00000000,00000000,0,1,0,0,ff,0,0,0,81,7e
140,140,0,0,0,0,0,0,0,f68ddd7e,9481e65c,00000000,00000000,0,1,0,0,00,0,0,0,7e,81
141,141,0,0,0,0,0,0,0,f68dde81,9481e65c,00000000,00000000,0,1,0,0,ff,0,0,0,81,7e
142,142,0,0,0,0,0,0,0,f68ddf7e,9481e65c,00000000,00000000,0,1,0,0,00,0,0,0,7e,81
143,143,0,0,0,0,0,0,0,f68de081,9481e65c,00000000,00000000,0,1,0,0,ff,0,0,0,81,7e
144,144,0,0,0,0,0,0,0,f68de17e,9481e65c,00000000,00000000,0,1,0,0,00,0,0,0,7e,81
145,145,0,0,0,0,0,0,0,f68de281,9481e65c,00000000,00000000,0,1,0,0,ff,0,0,0,81,7e
146,146,0,0,0,0,0,0,0,f68de37e,9481e65c,00000000,00000000,0,1,0,0,00,0,0,0,7e,81
147,147,0,0,0,0,0,0,0,f68de481,9481e65c,00000000,00000000,0,1,0,0,ff,0,0,0,81,7e
148,148,0,0,0,0,0,0,0,f68de57e,9481e65c,00000000,00000000,0,1,0,0,00,0,0,0,7e,81
149,149,0,0,0,0,0,0,0,f68de681,9481e65c,00000000,00000000,0,1,0,0,ff,0,0,0,81,7e
150,150,0,0,0,0,0,0,0,f68de77e,9481e65c,00000000,00000000,0,1,0,0,00,0,0,0,7e,81
151,151,0,0,0,0,0,0,0,f68de881,9481e65c,00000000,00000000,0,1,0,0,ff,0,0,0,81,7e
152,152,0,0,0,0,0,0,0,f68de97e,9481e65c,00000000,00000000,0,1,0,0,00,0,0,0,7e,81
153,153,0,0,0,0,0,0,0,f68dea81,9481e65c,00000000,00000000,0,1,0,0,ff,0,0,0,81,7e
154,154,0,0,0,0,0,0,0,f68deb7e,9481e65c,00000000,00000000,0,1,0,0,00,0,0,0,7e,81
155,155,0,0,0,0,0,0,0,f68dec81,9481e65c,00000000,00000000,0,1,0,0,ff,0,0,0,81,7e
156,156,0,0,0,0,0,0,0,f68ded7e,9481e65c,00000000,00000000,0,1,0,0,00,0,0,0,7e,81
157,157,0,0,0,0,0,0,0,f68dee81,9481e65c,00000000,00000000,0,1,0,0,ff,0,0,0,81,7e
158,158,0,0,0,0,0,0,0,f68def7e,9481e65c,00000000,00000000,0,1,0,0,00,0,0,0,7e,81
159,159,0,0,0,0,0,0,0,f68df081,9481e65c,00000000,00000000,0,1,0,0,ff,0,0,0,81,7e
160,160,0,0,0,0,0,0,0,f68df17e,9481e65c,00000000,00000000,0,1,0,0,00,0,0,0,7e,81
161,161,0,0,0,0,0,0,0,f68df281,9481e65c,00000000,00000000,0,1,0,0,ff,0,0,0,81,7e
162,162,0,0,0,0,0,0,0,f68df37e,9481e65c,00000000,00000000,0,1,0,0,00,0,0,0,7e,81
163,163,0,0,0,0,0,0,0,f68df481,9481e65c,00000000,00000000,0,1,0,0,ff,0,0,0,81,7e
164,164,0,0,0,0,0,0,0,f68df57e,9481e65c,00000000,00000000,0,1,0,0,00,0,0,0,7e,81
165,165,0,0,0,0,0,0,0,f68df681,9481e65c,00000000,00000000,0,1,0,0,ff,0,0,0,81,7e
166,166,0,0,0,0,0,0,0,f68df77e,9481e65c,00000000,00000000,0,1,0,0,00,0,0,0,7e,81
167,167,0,0,0,0,0,0,0,f68df881,9481e65c,00000000,00000000,0,1,0,0,ff,0,0,0,81,7e
168,168,0,0,0,0,0,0,0,f68df97e,9481e65c,00000000,00000000,0,1,0,0,00,0,0,0,7e,81
169,169,0,0,0,0,0,0,0,f68dfa81,9481e65c,00000000,00000000,0,1,0,0,ff,0,0,0,81,7e
170,170,0,0,0,0,0,0,0,f68dfb7e,9481e65c,00000000,00000000,0,1,0,0,00,0,0,0,7e,81
171,171,0,0,0,0,0,0,0,f68dfc81,9481e65c,00000000,00000000,0,1,0,0,ff,0,0,0,81,7e
172,172,0,0,0,0,0,0,0,f68dfd7e,9481e65c,00000000,00000000,0,1,0,0,00,0,0,0,7e,81
173,173,0,0,0,0,0,0,0,f68dfe81,9481e65c,00000000,00000000,0,1,0,0,ff,0,0,0,81,7e
174,174,0,0,0,0,0,0,0,f68dff7e,9481e65c,00000000,00000000,0,1,0,0,00,0,0,0,7e,81
175,175,0,0,0,0,0,0,0,f68e0081,9481e65c,00000000,00000000,0,1,0,0,ff,0,0,0,81,7e
176,176,0,0,0,0,0,0,0,f68e017e,9481e65c,00000000,00000000,0,1,0,0,00,0,0,0,7e,81
177,177,0,0,0,0,0,0,0,f68e0281,9481e65c,00000000,00000000,0,1,0,0,ff,0,0,0,81,7e
178,178,0,0,0,0,0,0,0,f68e037e,9481e65c,00000000,00000000,0,1,0,0,00,0,0,0,7e,81
179,179,0,0,0,0,0,0,0,f68e0481,9481e65c,00000000,00000000,0,1,0,0,ff,0,0,0,81,7e
180,180,0,0,0,0,0,0,0,f68e057e,9481e65c,00000000,00000000,0,1,0,0,00,0,0,0,7e,81
181,181,0,0,0,0,0,0,0,f68e0681,9481e65c,00000000,00000000,0,1,0,0,ff,0,0,0,81,7e
182,182,0,0,0,0,0,0,0,f68e077e,9481e65c,00000000,00000000,0,1,0,0,00,0,0,0,7e,81
183,183,0,0,0,0,0,0,0,f68e0881,9481e65c,00000000,00000000,0,1,0,0,ff,0,0,0,81,7e
184,184,0,0,0,0,0,0,0,f68e097e,9481e65c,00000000,00000000,0,1,0,0,00,0,0,0,7e,81
185,185,0,0,0,0,0,0,0,f68e0a81,9481e65c,00000000,00000000,0,1,0,0,ff,0,0,0,81,7e
186,186,0,0,0,0,0,0,0,f68e0b7e,9481e65c,00000000,00000000,0,1,0,0,00,0,0,0,7e,81
187,187,0,0,0,0,0,0,0,f68e0c81,9481e65c,00000000,00000000,0,1,0,0,ff,0,0,0,81,7e
188,188,0,0,0,0,0,0,0,f68e0d7e,9481e65c,00000000,00000000,0,1,0,0,00,0,0,0,7e,81
189,189,0,0,0,0,0,0,0,f68e0e81,9481e65c,00000000,00000000,0,1,0,0,ff,0,0,0,81,7e
190,190,0,0,0,0,0,0,0,f68e0f7e,9481e65c,00000000,00000000,0,1,0,0,00,0,0,0,7e,81
191,191,0,0,0,0,0,0,0,f68e1081,9481e65c,00000000,00000000,0,1,0,0,ff,0,0,0,81,7e
192,192,0,0,0,0,0,0,0,f68e117e,9481e65c,00000000,00000000,0,1,0,0,00,0,0,0,7e,81
193,193,0,0,0,0,0,0,0,f68e1281,9481e65c,00000000,00000000,0,1,0,0,ff,0,0,0,81,7e
194,194,0,0,0,0,0,0,0,f68e137e,9481e65c,00000000,00000000,0,1,0,0,00,0,0,0,7e,81
195,195,0,0,0,0,0,0,0,f68e1481,9481e65c,00000000,00000000,0,1,0,0,ff,0,0,0,81,7e
196,196,0,0,0,0,0,0,0,f68e157e,9481e65c,00000000,00000000,0,1,0,0,00,0,0,0,7e,81
197,197,0,0,0,0,0,0,0,f68e1681,9481e65c,00000000,00000000,0,1,0,0,ff,0,0,0,81,7e
198,198,0,0,0,0,0,0,0,f68e177e,9481e65c,00000000,00000000,0,1,0,0,00,0,0,0,7e,81
199,199,0,0,0,0,0,0,0,f68e1881,9481e65c,00000000,00000000,0,1,0,0,ff,0,0,0,81,7e
200,200,0,0,0,0,0,0,0,f68e197e,9481e65c,00000000,00000000,0,1,0,0,00,0,0,0,7e,81
201,201,0,0,0,0,0,0,0,f68e1a81,9481e65c,00000000,00000000,0,1,0,0,ff,0,0,0,81,7e
202,202,0,0,0,0,0,0,0,f68e1b7e,9481e65c,00000000,00000000,0,1,0,0,00,0,0,0,7e,81
203,203,0,0,0,0,0,0,0,f68e1c81,9481e65c,00000000,00000000,0,1,0,0,ff,0,0,0,81,7e
204,204,0,0,0,0,0,0,0,f68e1d7e,9481e65c,00000000,00000000,0,1,0,0,00,0,0,0,7e,81
205,205,0,0,0,0,0,0,0,f68e1e81,9481e65c,00000000,00000000,0,1,0,0,ff,0,0,0,81,7e
206,206,0,0,0,0,0,0,0,f68e1f7e,9481e65c,00000000,00000000,0,1,0,0,00,0,0,0,7e,81
207,207,0,0,0,0,0,0,0,f68e2081,9481e65c,00000000,00000000,0,1,0,0,ff,0,0,0,81,7e
208,208,0,0,0,0,0,0,0,f68e217e,9481e65c,00000000,00000000,0,1,0,0,00,0,0,0,7e,81
209,209,0,0,0,0,0,0,0,f68e2281,9481e65c,00000000,00000000,0,1,0,0,ff,0,0,0,81,7e
210,210,0,0,0,0,0,0,0,f68e237e,9481e65c,00000000,00000000,0,1,0,0,00,0,0,0,7e,81
211,211,0,0,0,0,0,0,0,f68e2481,9481e65c,00000000,00000000,0,1,0,0,ff,0,0,0,81,7e
212,212,0,0,0,0,0,0,0,f68e257e,9481e65c,00000000,00000000,0,1,0,0,00,0,0,0,7e,81
213,213,0,0,0,0,0,0,0,f68e2681,9481e65c,00000000,00000000,0,1,0,0,ff,0,0,0,81,7e
214,214,0,0,0,0,0,0,0,f68e277e,9481e65c,00000000,00000000,0,1,0,0,00,0,0,0,7e,81
215,215,0,0,0,0,0,0,0,f68e2881,9481e65c,00000000,00000000,0,1,0,0,ff,0,0,0,81,7e
216,216,0,0,0,0,0,0,0,f68e297e,9481e65c,00000000,00000000,0,1,0,0,00,0,0,0,7e,81
217,217,0,0,0,0,0,0,0,f68e2a81,9481e65c,00000000,00000000,0,1,0,0,ff,0,0,0,81,7e
218,218,0,0,0,0,0,0,0,f68e2b7e,9481e65c,00000000,00000000,0,1,0,0,00,0,0,0,7e,81
219,219,0,0,0,0,0,0,0,f68e2c81,9481e65c,00000000,00000000,0,1,0,0,ff,0,0,0,81,7e
220,220,0,0,0,0,0,0,0,f68e2d7e,9481e65c,00000000,00000000,0,1,0,0,00,0,0,0,7e,81
221,221,0,0,0,0,0,0,0,f68e2e81,9481e65c,00000000,00000000,0,1,0,0,ff,0,0,0,81,7e
222,222,0,0,0,0,0,0,0,f68e2f7e,9481e65c,00000000,00000000,0,1,0,0,00,0,0,0,7e,81
223,223,0,0,0,0,0,0,0,f68e3081,9481e65c,00000000,00000000,0,1,0,0,ff,0,0,0,81,7e
224,224,0,0,0,0,0,0,0,f68e317e,9481e65c,00000000,00000000,0,1,0,0,00,0,0,0,7e,81
225,225,0,0,0,0,0,0,0,f68e3281,9481e65c,00000000,00000000,0,1,0,0,ff,0,0,0,81,7e
226,226,0,0,0,0,0,0,0,f68e337e,9481e65c,00000000,00000000,0,1,0,0,00,0,0,0,7e,81
227,227,0,0,0,0,0,0,0,f68e3481,9481e65c,00000000,00000000,0,1,0,0,ff,0,0,0,81,7e
228,228,0,0,0,0,0,0,0,f68e357e,9481e65c,00000000,00000000,0,1,0,0,00,0,0,0,7e,81
229,229,0,0,0,0,0,0,0,f68e3681,9481e65c,00000000,00000000,0,1,0,0,ff,0,0,0,81,7e
230,230,0,0,0,0,0,0,0,f68e377e,9481e65c,00000000,00000000,0,1,0,0,00,0,0,0,7e,81
231,231,0,0,0,0,0,0,0,f68e3881,9481e65c,00000000,00000000,0,1,0,0,ff,0,0,0,81,7e
232,232,0,0,0,0,0,0,0,f68e397e,9481e65c,00000000,00000000,0,1,0,0,00,0,0,0,7e,81
233,233,0,0,0,0,0,0,0,f68e3a81,9481e65c,00000000,00000000,0,1,0,0,ff,0,0,0,81,7e
234,234,0,0,0,0,0,0,0,f68e3b7e,9481e65c,00000000,00000000,0,1,0,0,00,0,0,0,7e,81
235,235,0,0,0,0,0,0,0,f68e3c81,9481e65c,00000000,00000000,0,1,0,0,ff,0,0,0,81,7e
236,236,0,0,0,0,0,0,0,f68e3d7e,9481e65c,00000000,00000000,0,1,0,0,00,0,0,0,7e,81
237,237,0,0,0,0,0,0,0,f68e3e81,9481e65c,00000000,00000000,0,1,0,0,ff,0,0,0,81,7e
238,238,0,0,0,0,0,0,0,f68e3f7e,9481e65c,00000000,00000000,0,1,0,0,00,0,0,0,7e,81
239,239,0,0,0,0,0,0,0,f68e4081,9481e65c,00000000,00000000,0,1,0,0,ff,0,0,0,81,7e
