Sample in Buffer,Sample in Window,TRIGGER,slaves/slave_vfat3/fifo_out_w_en,slaves/slave_vfat3/fifo_in_w_en,slaves/slave_vfat3/fifo_out_r_en,slaves/slave_vfat3/fifo_in_r_en,slaves/slave_vfat3/fifo_out_valid,slaves/slave_vfat3/fifo_in_valid,slaves/slave_vfat3/fifo_out_data_in[31:0],slaves/slave_vfat3/fifo_out_data_out[31:0],slaves/slave_vfat3/fifo_in_data_in[31:0],slaves/slave_vfat3/fifo_in_data_out[31:0],slaves/slave_vfat3/fifo_out_empty,slaves/slave_vfat3/fifo_in_empty,slaves/slave_vfat3/fifo_out_full,slaves/slave_vfat3/fifo_in_full,slaves/slave_vfat3/ser_d_in[7:0],slaves/slave_vfat3/reset,slaves/slave_vfat3/rst40,slaves/slave_vfat3/reset_fifo,slaves/slave_vfat3/data_bus_in[7:0],slaves/slave_vfat3/d_sync[7:0]
0,0,1,0,0,0,1,0,0,edba4381,789d8afe,00000000,0000000f,1,0,0,0,ff,0,0,0,81,7e
1,1,0,0,0,0,1,0,1,edba447e,789d8afe,00000000,00000000,1,0,0,0,00,0,0,0,7e,81
2,2,0,0,0,0,1,0,1,edba4581,789d8afe,00000000,00000000,1,0,0,0,ff,0,0,0,81,7e
3,3,0,0,0,0,0,0,1,edba467e,789d8afe,00000000,00000000,1,1,0,0,17,0,0,0,7e,81
4,4,0,0,0,0,0,0,0,edba4781,789d8afe,00000000,00000000,1,1,0,0,17,0,0,0,81,7e
5,5,0,0,0,0,0,0,0,edba487e,789d8afe,00000000,00000000,1,1,0,0,17,0,0,0,7e,81
6,6,0,0,0,0,0,0,0,edba4981,789d8afe,00000000,00000000,1,1,0,0,00,0,0,0,81,7e
7,7,0,0,0,0,0,0,0,edba4a7e,789d8afe,00000000,00000000,1,1,0,0,ff,0,0,0,7e,81
8,8,0,0,0,0,0,0,0,edba4b81,789d8afe,00000000,00000000,1,1,0,0,00,0,0,0,81,7e
9,9,0,0,0,0,0,0,0,edba4c7e,789d8afe,00000000,00000000,1,1,0,0,ff,0,0,0,7e,81
10,10,0,0,0,0,0,0,0,edba4d81,789d8afe,00000000,00000000,1,1,0,0,00,0,0,0,81,7e
11,11,0,0,0,0,0,0,0,edba4e7e,789d8afe,00000000,00000000,1,1,0,0,ff,0,0,0,7e,81
12,12,0,0,0,0,0,0,0,edba4f81,789d8afe,00000000,00000000,1,1,0,0,00,0,0,0,81,7e
13,13,0,0,0,0,0,0,0,edba507e,789d8afe,00000000,00000000,1,1,0,0,ff,0,0,0,5c,81
14,14,0,0,0,0,0,0,0,edba5181,789d8afe,00000000,00000000,1,1,0,0,00,0,0,0,7e,3a
15,15,0,1,0,0,0,0,0,edba523a,789d8afe,00000000,00000000,1,1,0,0,ff,0,0,0,81,7e
16,16,0,0,0,0,0,0,0,edba537e,789d8afe,00000000,00000000,1,1,0,0,00,0,0,0,7e,81
17,17,0,0,0,0,0,0,0,edba5481,789d8afe,00000000,00000000,1,1,0,0,ff,0,0,0,81,7e
18,18,0,0,0,0,0,0,0,edba557e,789d8afe,00000000,00000000,1,1,0,0,00,0,0,0,7e,81
19,19,0,0,0,0,0,0,0,edba5681,789d8afe,00000000,00000000,1,1,0,0,ff,0,0,0,81,7e
20,20,0,0,0,0,0,0,0,edba577e,789d8afe,00000000,00000000,1,1,0,0,00,0,0,0,7e,81
21,21,0,0,0,0,0,0,0,edba5881,789d8afe,00000000,00000000,0,1,0,0,ff,0,0,0,81,7e
22,22,0,0,0,0,0,0,0,edba597e,789d8afe,00000000,00000000,0,1,0,0,00,0,0,0,7e,81
23,23,0,0,0,0,0,0,0,edba5a81,789d8afe,00000000,00000000,0,1,0,0,ff,0,0,0,81,7e
24,24,0,0,0,0,0,0,0,edba5b7e,789d8afe,00000000,00000000,0,1,0,0,00,0,0,0,7e,81
25,25,0,0,0,0,0,0,0,edba5c81,789d8afe,00000000,00000000,0,1,0,0,ff,0,0,0,81,7e
26,26,0,0,0,0,0,0,0,edba5d7e,789d8afe,00000000,00000000,0,1,0,0,00,0,0,0,7e,81
27,27,0,0,0,0,0,0,0,edba5e81,789d8afe,00000000,00000000,0,1,0,0,ff,0,0,0,81,7e
28,28,0,0,0,0,0,0,0,edba5f7e,789d8afe,00000000,00000000,0,1,0,0,00,0,0,0,7e,81
29,29,0,0,0,0,0,0,0,edba6081,789d8afe,00000000,00000000,0,1,0,0,ff,0,0,0,81,7e
30,30,0,0,0,0,0,0,0,edba617e,789d8afe,00000000,00000000,0,1,0,0,00,0,0,0,7e,81
31,31,0,0,0,0,0,0,0,edba6281,789d8afe,00000000,00000000,0,1,0,0,ff,0,0,0,81,7e
32,32,0,0,0,0,0,0,0,edba637e,789d8afe,00000000,00000000,0,1,0,0,00,0,0,0,7e,81
33,33,0,0,0,0,0,0,0,edba6481,789d8afe,00000000,00000000,0,1,0,0,ff,0,0,0,81,7e
34,34,0,0,0,0,0,0,0,edba657e,789d8afe,00000000,00000000,0,1,0,0,00,0,0,0,7e,81
35,35,0,0,0,0,0,0,0,edba6681,789d8afe,00000000,00000000,0,1,0,0,ff,0,0,0,81,7e
36,36,0,0,0,0,0,0,0,edba677e,789d8afe,00000000,00000000,0,1,0,0,00,0,0,0,7e,81
37,37,0,0,0,0,0,0,0,edba6881,789d8afe,00000000,00000000,0,1,0,0,ff,0,0,0,81,7e
38,38,0,0,0,0,0,0,0,edba697e,789d8afe,00000000,00000000,0,1,0,0,00,0,0,0,7e,81
39,39,0,0,0,0,0,0,0,edba6a81,789d8afe,00000000,00000000,0,1,0,0,ff,0,0,0,81,7e
40,40,0,0,0,0,0,0,0,edba6b7e,789d8afe,00000000,00000000,0,1,0,0,00,0,0,0,7e,81
41,41,0,0,0,0,0,0,0,edba6c81,789d8afe,00000000,00000000,0,1,0,0,ff,0,0,0,81,7e
42,42,0,0,0,0,0,0,0,edba6d7e,789d8afe,00000000,00000000,0,1,0,0,00,0,0,0,7e,81
43,43,0,0,0,0,0,0,0,edba6e81,789d8afe,00000000,00000000,0,1,0,0,ff,0,0,0,81,7e
44,44,0,0,0,0,0,0,0,edba6f7e,789d8afe,00000000,00000000,0,1,0,0,00,0,0,0,7e,81
45,45,0,0,0,0,0,0,0,edba7081,789d8afe,00000000,00000000,0,1,0,0,ff,0,0,0,81,7e
46,46,0,0,0,0,0,0,0,edba717e,789d8afe,00000000,00000000,0,1,0,0,00,0,0,0,7e,81
47,47,0,0,0,0,0,0,0,edba7281,789d8afe,00000000,00000000,0,1,0,0,ff,0,0,0,81,7e
48,48,0,0,0,0,0,0,0,edba737e,789d8afe,00000000,00000000,0,1,0,0,00,0,0,0,7e,81
49,49,0,0,0,0,0,0,0,edba7481,789d8afe,00000000,00000000,0,1,0,0,ff,0,0,0,81,7e
50,50,0,0,0,0,0,0,0,edba757e,789d8afe,00000000,00000000,0,1,0,0,00,0,0,0,7e,81
51,51,0,0,0,0,0,0,0,edba7681,789d8afe,00000000,00000000,0,1,0,0,ff,0,0,0,81,7e
52,52,0,0,0,0,0,0,0,edba777e,789d8afe,00000000,00000000,0,1,0,0,00,0,0,0,7e,81
53,53,0,0,0,0,0,0,0,edba7881,789d8afe,00000000,00000000,0,1,0,0,ff,0,0,0,81,7e
54,54,0,0,0,0,0,0,0,edba797e,789d8afe,00000000,00000000,0,1,0,0,00,0,0,0,7e,81
55,55,0,0,0,0,0,0,0,edba7a81,789d8afe,00000000,00000000,0,1,0,0,ff,0,0,0,81,7e
56,56,0,0,0,0,0,0,0,edba7b7e,789d8afe,00000000,00000000,0,1,0,0,00,0,0,0,7e,81
57,57,0,0,0,0,0,0,0,edba7c81,789d8afe,00000000,00000000,0,1,0,0,ff,0,0,0,81,7e
58,58,0,0,0,0,0,0,0,edba7d7e,789d8afe,00000000,00000000,0,1,0,0,00,0,0,0,7e,81
59,59,0,0,0,0,0,0,0,edba7e81,789d8afe,00000000,00000000,0,1,0,0,ff,0,0,0,81,7e
60,60,0,0,0,0,0,0,0,edba7f7e,789d8afe,00000000,00000000,0,1,0,0,00,0,0,0,7e,81
61,61,0,0,0,0,0,0,0,edba8081,789d8afe,00000000,00000000,0,1,0,0,ff,0,0,0,81,7e
62,62,0,0,0,0,0,0,0,edba817e,789d8afe,00000000,00000000,0,1,0,0,00,0,0,0,7e,81
63,63,0,0,0,0,0,0,0,edba8281,789d8afe,00000000,00000000,0,1,0,0,ff,0,0,0,81,7e
64,64,0,0,0,0,0,0,0,edba837e,789d8afe,00000000,00000000,0,1,0,0,00,0,0,0,7e,81
65,65,0,0,0,0,0,0,0,edba8481,789d8afe,00000000,00000000,0,1,0,0,ff,0,0,0,81,7e
66,66,0,0,0,0,0,0,0,edba857e,789d8afe,00000000,00000000,0,1,0,0,00,0,0,0,7e,81
67,67,0,0,0,0,0,0,0,edba8681,789d8afe,00000000,00000000,0,1,0,0,ff,0,0,0,81,7e
68,68,0,0,0,0,0,0,0,edba877e,789d8afe,00000000,00000000,0,1,0,0,00,0,0,0,7e,81
69,69,0,0,0,0,0,0,0,edba8881,789d8afe,00000000,00000000,0,1,0,0,ff,0,0,0,81,7e
70,70,0,0,0,0,0,0,0,edba897e,789d8afe,00000000,00000000,0,1,0,0,00,0,0,0,7e,81
71,71,0,0,0,0,0,0,0,edba8a81,789d8afe,00000000,00000000,0,1,0,0,ff,0,0,0,81,7e
72,72,0,0,0,0,0,0,0,edba8b7e,789d8afe,00000000,00000000,0,1,0,0,00,0,0,0,7e,81
73,73,0,0,0,0,0,0,0,edba8c81,789d8afe,00000000,00000000,0,1,0,0,ff,0,0,0,81,7e
74,74,0,0,0,0,0,0,0,edba8d7e,789d8afe,00000000,00000000,0,1,0,0,00,0,0,0,7e,81
75,75,0,0,0,0,0,0,0,edba8e81,789d8afe,00000000,00000000,0,1,0,0,ff,0,0,0,81,7e
76,76,0,0,0,0,0,0,0,edba8f7e,789d8afe,00000000,00000000,0,1,0,0,00,0,0,0,7e,81
77,77,0,0,0,0,0,0,0,edba9081,789d8afe,00000000,00000000,0,1,0,0,ff,0,0,0,81,7e
78,78,0,0,0,0,0,0,0,edba917e,789d8afe,00000000,00000000,0,1,0,0,00,0,0,0,7e,81
79,79,0,0,0,0,0,0,0,edba9281,789d8afe,00000000,00000000,0,1,0,0,ff,0,0,0,81,7e
80,80,0,0,0,0,0,0,0,edba937e,789d8afe,00000000,00000000,0,1,0,0,00,0,0,0,7e,81
81,81,0,0,0,0,0,0,0,edba9481,789d8afe,00000000,00000000,0,1,0,0,ff,0,0,0,81,7e
82,82,0,0,0,0,0,0,0,edba957e,789d8afe,00000000,00000000,0,1,0,0,00,0,0,0,7e,81
83,83,0,0,0,0,0,0,0,edba9681,789d8afe,00000000,00000000,0,1,0,0,ff,0,0,0,81,7e
84,84,0,0,0,0,0,0,0,edba977e,789d8afe,00000000,00000000,0,1,0,0,00,0,0,0,7e,81
85,85,0,0,0,0,0,0,0,edba9881,789d8afe,00000000,00000000,0,1,0,0,ff,0,0,0,81,7e
86,86,0,0,0,0,0,0,0,edba997e,789d8afe,00000000,00000000,0,1,0,0,00,0,0,0,7e,81
87,87,0,0,0,0,0,0,0,edba9a81,789d8afe,00000000,00000000,0,1,0,0,ff,0,0,0,81,7e
88,88,0,0,0,0,0,0,0,edba9b7e,789d8afe,00000000,00000000,0,1,0,0,00,0,0,0,7e,81
89,89,0,0,0,0,0,0,0,edba9c81,789d8afe,00000000,00000000,0,1,0,0,ff,0,0,0,81,7e
90,90,0,0,0,0,0,0,0,edba9d7e,789d8afe,00000000,00000000,0,1,0,0,00,0,0,0,7e,81
91,91,0,0,0,0,0,0,0,edba9e81,789d8afe,00000000,00000000,0,1,0,0,ff,0,0,0,81,7e
92,92,0,0,0,0,0,0,0,edba9f7e,789d8afe,00000000,00000000,0,1,0,0,00,0,0,0,7e,81
93,93,0,0,0,0,0,0,0,edbaa081,789d8afe,00000000,00000000,0,1,0,0,ff,0,0,0,81,7e
94,94,0,0,0,0,0,0,0,edbaa17e,789d8afe,00000000,00000000,0,1,0,0,00,0,0,0,7e,81
95,95,0,0,0,0,0,0,0,edbaa281,789d8afe,00000000,00000000,0,1,0,0,ff,0,0,0,81,7e
96,96,0,0,0,0,0,0,0,edbaa37e,789d8afe,00000000,00000000,0,1,0,0,00,0,0,0,7e,81
97,97,0,0,0,0,0,0,0,edbaa481,789d8afe,00000000,00000000,0,1,0,0,ff,0,0,0,81,7e
98,98,0,0,0,0,0,0,0,edbaa57e,789d8afe,00000000,00000000,0,1,0,0,00,0,0,0,7e,81
99,99,0,0,0,0,0,0,0,edbaa681,789d8afe,00000000,00000000,0,1,0,0,ff,0,0,0,81,7e
100,100,0,0,0,0,0,0,0,edbaa77e,789d8afe,00000000,00000000,0,1,0,0,00,0,0,0,7e,81
101,101,0,0,0,0,0,0,0,edbaa881,789d8afe,00000000,00000000,0,1,0,0,ff,0,0,0,81,7e
102,102,0,0,0,0,0,0,0,edbaa97e,789d8afe,00000000,00000000,0,1,0,0,00,0,0,0,7e,81
103,103,0,0,0,0,0,0,0,edbaaa81,789d8afe,00000000,00000000,0,1,0,0,ff,0,0,0,81,7e
104,104,0,0,0,0,0,0,0,edbaab7e,789d8afe,00000000,00000000,0,1,0,0,00,0,0,0,7e,81
105,105,0,0,0,0,0,0,0,edbaac81,789d8afe,00000000,00000000,0,1,0,0,ff,0,0,0,81,7e
106,106,0,0,0,0,0,0,0,edbaad7e,789d8afe,00000000,00000000,0,1,0,0,00,0,0,0,7e,81
107,107,0,0,0,0,0,0,0,edbaae81,789d8afe,00000000,00000000,0,1,0,0,ff,0,0,0,81,7e
108,108,0,0,0,0,0,0,0,edbaaf7e,789d8afe,00000000,00000000,0,1,0,0,00,0,0,0,7e,81
109,109,0,0,0,0,0,0,0,edbab081,789d8afe,00000000,00000000,0,1,0,0,ff,0,0,0,81,7e
110,110,0,0,0,0,0,0,0,edbab17e,789d8afe,00000000,00000000,0,1,0,0,00,0,0,0,7e,81
111,111,0,0,0,0,0,0,0,edbab281,789d8afe,00000000,00000000,0,1,0,0,ff,0,0,0,81,7e
112,112,0,0,0,0,0,0,0,edbab37e,789d8afe,00000000,00000000,0,1,0,0,00,0,0,0,7e,81
113,113,0,0,0,0,0,0,0,edbab481,789d8afe,00000000,00000000,0,1,0,0,ff,0,0,0,81,7e
114,114,0,0,0,0,0,0,0,edbab57e,789d8afe,00000000,00000000,0,1,0,0,00,0,0,0,7e,81
115,115,0,0,0,0,0,0,0,edbab681,789d8afe,00000000,00000000,0,1,0,0,ff,0,0,0,81,7e
116,116,0,0,0,0,0,0,0,edbab77e,789d8afe,00000000,00000000,0,1,0,0,00,0,0,0,7e,81
117,117,0,0,0,0,0,0,0,edbab881,789d8afe,00000000,00000000,0,1,0,0,ff,0,0,0,81,7e
118,118,0,0,0,0,0,0,0,edbab97e,789d8afe,00000000,00000000,0,1,0,0,00,0,0,0,7e,81
119,119,0,0,0,0,0,0,0,edbaba81,789d8afe,00000000,00000000,0,1,0,0,ff,0,0,0,81,7e
120,120,0,0,0,0,0,0,0,edbabb7e,789d8afe,00000000,00000000,0,1,0,0,00,0,0,0,7e,81
121,121,0,0,0,0,0,0,0,edbabc81,789d8afe,00000000,00000000,0,1,0,0,ff,0,0,0,81,7e
122,122,0,0,0,0,0,0,0,edbabd7e,789d8afe,00000000,00000000,0,1,0,0,00,0,0,0,7e,81
123,123,0,0,0,0,0,0,0,edbabe81,789d8afe,00000000,00000000,0,1,0,0,ff,0,0,0,81,7e
124,124,0,0,0,0,0,0,0,edbabf7e,789d8afe,00000000,00000000,0,1,0,0,00,0,0,0,7e,81
125,125,0,0,0,0,0,0,0,edbac081,789d8afe,00000000,00000000,0,1,0,0,ff,0,0,0,81,7e
126,126,0,0,0,0,0,0,0,edbac17e,789d8afe,00000000,00000000,0,1,0,0,00,0,0,0,7e,81
127,127,0,0,0,0,0,0,0,edbac281,789d8afe,00000000,00000000,0,1,0,0,ff,0,0,0,81,7e
128,128,0,0,0,0,0,0,0,edbac37e,789d8afe,00000000,00000000,0,1,0,0,00,0,0,0,7e,81
129,129,0,0,0,0,0,0,0,edbac481,789d8afe,00000000,00000000,0,1,0,0,ff,0,0,0,81,7e
130,130,0,0,0,0,0,0,0,edbac57e,789d8afe,00000000,00000000,0,1,0,0,00,0,0,0,7e,81
131,131,0,0,0,0,0,0,0,edbac681,789d8afe,00000000,00000000,0,1,0,0,ff,0,0,0,81,7e
132,132,0,0,0,0,0,0,0,edbac77e,789d8afe,00000000,00000000,0,1,0,0,00,0,0,0,7e,81
133,133,0,0,0,0,0,0,0,edbac881,789d8afe,00000000,00000000,0,1,0,0,ff,0,0,0,81,7e
134,134,0,0,0,0,0,0,0,edbac97e,789d8afe,00000000,00000000,0,1,0,0,00,0,0,0,7e,81
135,135,0,0,0,0,0,0,0,edbaca81,789d8afe,00000000,00000000,0,1,0,0,ff,0,0,0,81,7e
136,136,0,0,0,0,0,0,0,edbacb7e,789d8afe,00000000,00000000,0,1,0,0,00,0,0,0,7e,81
137,137,0,0,0,0,0,0,0,edbacc81,789d8afe,00000000,00000000,0,1,0,0,ff,0,0,0,81,7e
138,138,0,0,0,0,0,0,0,edbacd7e,789d8afe,00000000,00000000,0,1,0,0,00,0,0,0,7e,81
139,139,0,0,0,0,0,0,0,edbace81,789d8afe,00000000,00000000,0,1,0,0,ff,0,0,0,81,7e
140,140,0,0,0,0,0,0,0,edbacf7e,789d8afe,00000000,00000000,0,1,0,0,00,0,0,0,7e,81
141,141,0,0,0,0,0,0,0,edbad081,789d8afe,00000000,00000000,0,1,0,0,ff,0,0,0,81,7e
142,142,0,0,0,0,0,0,0,edbad17e,789d8afe,00000000,00000000,0,1,0,0,00,0,0,0,7e,81
143,143,0,0,0,0,0,0,0,edbad281,789d8afe,00000000,00000000,0,1,0,0,ff,0,0,0,81,7e
144,144,0,0,0,0,0,0,0,edbad37e,789d8afe,00000000,00000000,0,1,0,0,00,0,0,0,7e,81
145,145,0,0,0,0,0,0,0,edbad481,789d8afe,00000000,00000000,0,1,0,0,ff,0,0,0,81,7e
146,146,0,0,0,0,0,0,0,edbad57e,789d8afe,00000000,00000000,0,1,0,0,00,0,0,0,7e,81
147,147,0,0,0,0,0,0,0,edbad681,789d8afe,00000000,00000000,0,1,0,0,ff,0,0,0,81,7e
148,148,0,0,0,0,0,0,0,edbad77e,789d8afe,00000000,00000000,0,1,0,0,00,0,0,0,7e,81
149,149,0,0,0,0,0,0,0,edbad881,789d8afe,00000000,00000000,0,1,0,0,ff,0,0,0,81,7e
150,150,0,0,0,0,0,0,0,edbad97e,789d8afe,00000000,00000000,0,1,0,0,00,0,0,0,7e,81
151,151,0,0,0,0,0,0,0,edbada81,789d8afe,00000000,00000000,0,1,0,0,ff,0,0,0,81,7e
152,152,0,0,0,0,0,0,0,edbadb7e,789d8afe,00000000,00000000,0,1,0,0,00,0,0,0,7e,81
153,153,0,0,0,0,0,0,0,edbadc81,789d8afe,00000000,00000000,0,1,0,0,ff,0,0,0,81,7e
154,154,0,0,0,0,0,0,0,edbadd7e,789d8afe,00000000,00000000,0,1,0,0,00,0,0,0,7e,81
155,155,0,0,0,0,0,0,0,edbade81,789d8afe,00000000,00000000,0,1,0,0,ff,0,0,0,81,7e
156,156,0,0,0,0,0,0,0,edbadf7e,789d8afe,00000000,00000000,0,1,0,0,00,0,0,0,7e,81
157,157,0,0,0,0,0,0,0,edbae081,789d8afe,00000000,00000000,0,1,0,0,ff,0,0,0,81,7e
158,158,0,0,0,0,0,0,0,edbae17e,789d8afe,00000000,00000000,0,1,0,0,00,0,0,0,7e,81
159,159,0,0,0,0,0,0,0,edbae281,789d8afe,00000000,00000000,0,1,0,0,ff,0,0,0,81,7e
160,160,0,0,0,0,0,0,0,edbae37e,789d8afe,00000000,00000000,0,1,0,0,00,0,0,0,7e,81
161,161,0,0,0,0,0,0,0,edbae481,789d8afe,00000000,00000000,0,1,0,0,ff,0,0,0,81,7e
162,162,0,0,0,0,0,0,0,edbae57e,789d8afe,00000000,00000000,0,1,0,0,00,0,0,0,7e,81
163,163,0,0,0,0,0,0,0,edbae681,789d8afe,00000000,00000000,0,1,0,0,ff,0,0,0,81,7e
164,164,0,0,0,0,0,0,0,edbae77e,789d8afe,00000000,00000000,0,1,0,0,00,0,0,0,7e,81
165,165,0,0,0,0,0,0,0,edbae881,789d8afe,00000000,00000000,0,1,0,0,ff,0,0,0,81,7e
166,166,0,0,0,0,0,0,0,edbae97e,789d8afe,00000000,00000000,0,1,0,0,00,0,0,0,7e,81
167,167,0,0,0,0,0,0,0,edbaea81,789d8afe,00000000,00000000,0,1,0,0,ff,0,0,0,81,7e
168,168,0,0,0,0,0,0,0,edbaeb7e,789d8afe,00000000,00000000,0,1,0,0,00,0,0,0,7e,81
169,169,0,0,0,0,0,0,0,edbaec81,789d8afe,00000000,00000000,0,1,0,0,ff,0,0,0,81,7e
170,170,0,0,0,0,0,0,0,edbaed7e,789d8afe,00000000,00000000,0,1,0,0,00,0,0,0,7e,81
171,171,0,0,0,0,0,0,0,edbaee81,789d8afe,00000000,00000000,0,1,0,0,ff,0,0,0,81,7e
172,172,0,0,0,0,0,0,0,edbaef7e,789d8afe,00000000,00000000,0,1,0,0,00,0,0,0,7e,81
173,173,0,0,0,0,0,0,0,edbaf081,789d8afe,00000000,00000000,0,1,0,0,ff,0,0,0,81,7e
174,174,0,0,0,0,0,0,0,edbaf17e,789d8afe,00000000,00000000,0,1,0,0,00,0,0,0,7e,81
175,175,0,0,0,0,0,0,0,edbaf281,789d8afe,00000000,00000000,0,1,0,0,ff,0,0,0,81,7e
176,176,0,0,0,0,0,0,0,edbaf37e,789d8afe,00000000,00000000,0,1,0,0,00,0,0,0,7e,81
177,177,0,0,0,0,0,0,0,edbaf481,789d8afe,00000000,00000000,0,1,0,0,ff,0,0,0,81,7e
178,178,0,0,0,0,0,0,0,edbaf57e,789d8afe,00000000,00000000,0,1,0,0,00,0,0,0,7e,81
179,179,0,0,0,0,0,0,0,edbaf681,789d8afe,00000000,00000000,0,1,0,0,ff,0,0,0,81,7e
180,180,0,0,0,0,0,0,0,edbaf77e,789d8afe,00000000,00000000,0,1,0,0,00,0,0,0,7e,81
181,181,0,0,0,0,0,0,0,edbaf881,789d8afe,00000000,00000000,0,1,0,0,ff,0,0,0,81,7e
182,182,0,0,0,0,0,0,0,edbaf97e,789d8afe,00000000,00000000,0,1,0,0,00,0,0,0,7e,81
183,183,0,0,0,0,0,0,0,edbafa81,789d8afe,00000000,00000000,0,1,0,0,ff,0,0,0,81,7e
184,184,0,0,0,0,0,0,0,edbafb7e,789d8afe,00000000,00000000,0,1,0,0,00,0,0,0,7e,81
185,185,0,0,0,0,0,0,0,edbafc81,789d8afe,00000000,00000000,0,1,0,0,ff,0,0,0,81,7e
186,186,0,0,0,0,0,0,0,edbafd7e,789d8afe,00000000,00000000,0,1,0,0,00,0,0,0,7e,81
187,187,0,0,0,0,0,0,0,edbafe81,789d8afe,00000000,00000000,0,1,0,0,ff,0,0,0,81,7e
188,188,0,0,0,0,0,0,0,edbaff7e,789d8afe,00000000,00000000,0,1,0,0,00,0,0,0,7e,81
189,189,0,0,0,0,0,0,0,edbb0081,789d8afe,00000000,00000000,0,1,0,0,ff,0,0,0,81,7e
190,190,0,0,0,0,0,0,0,edbb017e,789d8afe,00000000,00000000,0,1,0,0,00,0,0,0,7e,81
191,191,0,0,0,0,0,0,0,edbb0281,789d8afe,00000000,00000000,0,1,0,0,ff,0,0,0,81,7e
192,192,0,0,0,0,0,0,0,edbb037e,789d8afe,00000000,00000000,0,1,0,0,00,0,0,0,7e,81
193,193,0,0,0,0,0,0,0,edbb0481,789d8afe,00000000,00000000,0,1,0,0,ff,0,0,0,81,7e
194,194,0,0,0,0,0,0,0,edbb057e,789d8afe,00000000,00000000,0,1,0,0,00,0,0,0,7e,81
195,195,0,0,0,0,0,0,0,edbb0681,789d8afe,00000000,00000000,0,1,0,0,ff,0,0,0,81,7e
196,196,0,0,0,0,0,0,0,edbb077e,789d8afe,00000000,00000000,0,1,0,0,00,0,0,0,7e,81
197,197,0,0,0,0,0,0,0,edbb0881,789d8afe,00000000,00000000,0,1,0,0,ff,0,0,0,81,7e
198,198,0,0,0,0,0,0,0,edbb097e,789d8afe,00000000,00000000,0,1,0,0,00,0,0,0,7e,81
199,199,0,0,0,0,0,0,0,edbb0a81,789d8afe,00000000,00000000,0,1,0,0,ff,0,0,0,81,7e
200,200,0,0,0,0,0,0,0,edbb0b7e,789d8afe,00000000,00000000,0,1,0,0,00,0,0,0,7e,81
201,201,0,0,0,0,0,0,0,edbb0c81,789d8afe,00000000,00000000,0,1,0,0,ff,0,0,0,81,7e
202,202,0,0,0,0,0,0,0,edbb0d7e,789d8afe,00000000,00000000,0,1,0,0,00,0,0,0,7e,81
203,203,0,0,0,0,0,0,0,edbb0e81,789d8afe,00000000,00000000,0,1,0,0,ff,0,0,0,81,7e
204,204,0,0,0,0,0,0,0,edbb0f7e,789d8afe,00000000,00000000,0,1,0,0,00,0,0,0,7e,81
205,205,0,0,0,0,0,0,0,edbb1081,789d8afe,00000000,00000000,0,1,0,0,ff,0,0,0,81,7e
206,206,0,0,0,0,0,0,0,edbb117e,789d8afe,00000000,00000000,0,1,0,0,00,0,0,0,7e,81
207,207,0,0,0,0,0,0,0,edbb1281,789d8afe,00000000,00000000,0,1,0,0,ff,0,0,0,81,7e
208,208,0,0,0,0,0,0,0,edbb137e,789d8afe,00000000,00000000,0,1,0,0,00,0,0,0,7e,81
209,209,0,0,0,0,0,0,0,edbb1481,789d8afe,00000000,00000000,0,1,0,0,ff,0,0,0,81,7e
210,210,0,0,0,0,0,0,0,edbb157e,789d8afe,00000000,00000000,0,1,0,0,00,0,0,0,7e,81
211,211,0,0,0,0,0,0,0,edbb1681,789d8afe,00000000,00000000,0,1,0,0,ff,0,0,0,81,7e
212,212,0,0,0,0,0,0,0,edbb177e,789d8afe,00000000,00000000,0,1,0,0,00,0,0,0,7e,81
213,213,0,0,0,0,0,0,0,edbb1881,789d8afe,00000000,00000000,0,1,0,0,ff,0,0,0,81,7e
214,214,0,0,0,0,0,0,0,edbb197e,789d8afe,00000000,00000000,0,1,0,0,00,0,0,0,7e,81
215,215,0,0,0,0,0,0,0,edbb1a81,789d8afe,00000000,00000000,0,1,0,0,ff,0,0,0,81,7e
216,216,0,0,0,0,0,0,0,edbb1b7e,789d8afe,00000000,00000000,0,1,0,0,00,0,0,0,7e,81
217,217,0,0,0,0,0,0,0,edbb1c81,789d8afe,00000000,00000000,0,1,0,0,ff,0,0,0,81,7e
218,218,0,0,0,0,0,0,0,edbb1d7e,789d8afe,00000000,00000000,0,1,0,0,00,0,0,0,7e,81
219,219,0,0,0,0,0,0,0,edbb1e81,789d8afe,00000000,00000000,0,1,0,0,ff,0,0,0,81,7e
220,220,0,0,0,0,0,0,0,edbb1f7e,789d8afe,00000000,00000000,0,1,0,0,00,0,0,0,7e,81
221,221,0,0,0,0,0,0,0,edbb2081,789d8afe,00000000,00000000,0,1,0,0,ff,0,0,0,81,7e
222,222,0,0,0,0,0,0,0,edbb217e,789d8afe,00000000,00000000,0,1,0,0,00,0,0,0,7e,81
223,223,0,0,0,0,0,0,0,edbb2281,789d8afe,00000000,00000000,0,1,0,0,ff,0,0,0,81,7e
224,224,0,0,0,0,0,0,0,edbb237e,789d8afe,00000000,00000000,0,1,0,0,00,0,0,0,7e,81
225,225,0,0,0,0,0,0,0,edbb2481,789d8afe,00000000,00000000,0,1,0,0,ff,0,0,0,81,7e
226,226,0,0,0,0,0,0,0,edbb257e,789d8afe,00000000,00000000,0,1,0,0,00,0,0,0,7e,81
227,227,0,0,0,0,0,0,0,edbb2681,789d8afe,00000000,00000000,0,1,0,0,ff,0,0,0,81,7e
228,228,0,0,0,0,0,0,0,edbb277e,789d8afe,00000000,00000000,0,1,0,0,00,0,0,0,7e,81
229,229,0,0,0,0,0,0,0,edbb2881,789d8afe,00000000,00000000,0,1,0,0,ff,0,0,0,81,7e
230,230,0,0,0,0,0,0,0,edbb297e,789d8afe,00000000,00000000,0,1,0,0,00,0,0,0,7e,81
231,231,0,0,0,0,0,0,0,edbb2a81,789d8afe,00000000,00000000,0,1,0,0,ff,0,0,0,81,7e
232,232,0,0,0,0,0,0,0,edbb2b7e,789d8afe,00000000,00000000,0,1,0,0,00,0,0,0,7e,81
233,233,0,0,0,0,0,0,0,edbb2c81,789d8afe,00000000,00000000,0,1,0,0,ff,0,0,0,81,7e
234,234,0,0,0,0,0,0,0,edbb2d7e,789d8afe,00000000,00000000,0,1,0,0,00,0,0,0,7e,81
235,235,0,0,0,0,0,0,0,edbb2e81,789d8afe,00000000,00000000,0,1,0,0,ff,0,0,0,81,7e
236,236,0,0,0,0,0,0,0,edbb2f7e,789d8afe,00000000,00000000,0,1,0,0,00,0,0,0,7e,81
237,237,0,0,0,0,0,0,0,edbb3081,789d8afe,00000000,00000000,0,1,0,0,ff,0,0,0,81,7e
238,238,0,0,0,0,0,0,0,edbb317e,789d8afe,00000000,00000000,0,1,0,0,00,0,0,0,7e,81
239,239,0,0,0,0,0,0,0,edbb3281,789d8afe,00000000,00000000,0,1,0,0,ff,0,0,0,81,7e
